#-----------------------------------------------------------
# xsim v2025.1.1 (64-bit)
# SW Build 6233196 on Thu Sep 11 21:27:30 MDT 2025
# IP Build 6232796 on Fri Sep 12 01:46:16 MDT 2025
# SharedData Build 6233195 on Thu Sep 11 17:56:43 MDT 2025
# Start of session at: Tue Dec 16 15:15:17 2025
# Process ID         : 5588
# Current directory  : C:/Users/Nader/apb_dpmem/tb/oop
# Command line       : xsim.exe -mode tcl -source {xsim.dir/top/xsim_script.tcl}
# Log file           : C:/Users/Nader/apb_dpmem/tb/oop/xsim.log
# Journal file       : C:/Users/Nader/apb_dpmem/tb/oop\xsim.jou
# Running On         : Legion
# Platform           : Windows Server 2016 or Windows 10
# Operating System   : 26100
# Processor Detail   : 13th Gen Intel(R) Core(TM) i9-13900H
# CPU Frequency      : 2995 MHz
# CPU Physical cores : 14
# CPU Logical cores  : 20
# Host memory        : 16961 MB
# Swap memory        : 15569 MB
# Total Virtual      : 32531 MB
# Available Virtual  : 14931 MB
#-----------------------------------------------------------
source xsim.dir/top/xsim_script.tcl
# xsim {top} -autoloadwcfg -runall
Time resolution is 1 ps
run -all

Time: 0 fs Started: 0 fs Scope: /top/dut/apb_asserts_dut File: C:/Users/Nader/apb_dpmem/tb/oop/apb_assertions.sv Line:47
Error: ASSERT ERROR: Signal PSEL is INVALID @ time=0
Time: 0 ps  Iteration: 0  Process: /top/dut/apb_asserts_dut//top/dut/apb_asserts_dut  Scope: top.dut.apb_asserts_dut  File: C:/Users/Nader/apb_dpmem/tb/oop/apb_assertions.sv Line: 48
Initializing the APB_DPMEM slave and Scoreboard memories
   i	 APB_DPMEM	 SCB_MEM
+-------------------------+
0000	 0x8081a201	 0x8081a201
0001	 0x1e81d53d	 0x1e81d53d
0002	 0xd934ecb2	 0xd934ecb2
0003	 0x8aa16415	 0x8aa16415
0004	 0x98c0b231	 0x98c0b231
0005	 0xcc9ad699	 0xcc9ad699
0006	 0x8ab67c15	 0x8ab67c15
0007	 0xd3592ea6	 0xd3592ea6
0008	 0xf1d9fce3	 0xf1d9fce3
0009	 0xb930a472	 0xb930a472
000a	 0x683ff5d0	 0x683ff5d0
000b	 0xadf8185b	 0xadf8185b
000c	 0xff800eff	 0xff800eff
000d	 0x27595b4e	 0x27595b4e
000e	 0x65f1c3cb	 0x65f1c3cb
000f	 0xa9f0a053	 0xa9f0a053
0010	 0xecac32d9	 0xecac32d9
0011	 0x7592d5eb	 0x7592d5eb
0012	 0x6ec111dd	 0x6ec111dd
0013	 0x8cd30219	 0x8cd30219
0014	 0x7cea75f9	 0x7cea75f9
0015	 0x639eafc7	 0x639eafc7
0016	 0x81a3ca03	 0x81a3ca03
0017	 0xea893ad5	 0xea893ad5
0018	 0x0065a300	 0x0065a300
0019	 0x1c1e4338	 0x1c1e4338
001a	 0x4f7c9f9e	 0x4f7c9f9e
001b	 0x9753042e	 0x9753042e
001c	 0x66b347cd	 0x66b347cd
001d	 0x9deeb03b	 0x9deeb03b
001e	 0x45c6f78b	 0x45c6f78b
001f	 0xef81dadf	 0xef81dadf
0020	 0x3c5faf78	 0x3c5faf78
0021	 0xe144d0c2	 0xe144d0c2
0022	 0xb202fe64	 0xb202fe64
0023	 0xb0f4fc61	 0xb0f4fc61
0024	 0x1f39e53e	 0x1f39e53e
0025	 0xd48940a9	 0xd48940a9
0026	 0x69e1a5d3	 0x69e1a5d3
0027	 0xe25562c4	 0xe25562c4
0028	 0xf55fb4ea	 0xf55fb4ea
0029	 0x0cf45d19	 0x0cf45d19
002a	 0x24309348	 0x24309348
002b	 0x0411cb08	 0x0411cb08
002c	 0xf309ace6	 0xf309ace6
002d	 0xc6ea408d	 0xc6ea408d
002e	 0x6e8637dd	 0x6e8637dd
002f	 0x871ab00e	 0x871ab00e
0030	 0x3b171776	 0x3b171776
0031	 0x9216c824	 0x9216c824
0032	 0xebadbad7	 0xebadbad7
0033	 0x455e518a	 0x455e518a
0034	 0xa659fe4c	 0xa659fe4c
0035	 0xc549908a	 0xc549908a
0036	 0x46d30b8d	 0x46d30b8d
0037	 0x7804a7f0	 0x7804a7f0
0038	 0xfda332fb	 0xfda332fb
0039	 0x9611f22c	 0x9611f22c
003a	 0x076ed50e	 0x076ed50e
003b	 0x676b6fce	 0x676b6fce
003c	 0xb28e3c65	 0xb28e3c65
003d	 0x701b0fe0	 0x701b0fe0
003e	 0x31f28363	 0x31f28363
003f	 0xd0e224a1	 0xd0e224a1
0040	 0xe30d6ac6	 0xe30d6ac6
0041	 0xe847bcd0	 0xe847bcd0
0042	 0x613443c2	 0x613443c2
0043	 0xbe26027c	 0xbe26027c
0044	 0x33b5c767	 0x33b5c767
0045	 0x678e9bcf	 0x678e9bcf
0046	 0xc49afc89	 0xc49afc89
0047	 0x4a9e0795	 0x4a9e0795
0048	 0xcccb1c99	 0xcccb1c99
0049	 0x699605d3	 0x699605d3
004a	 0x2f0a635e	 0x2f0a635e
004b	 0x9256ee24	 0x9256ee24
004c	 0x860bf80c	 0x860bf80c
004d	 0xeb1016d6	 0xeb1016d6
004e	 0x228edb45	 0x228edb45
004f	 0xc6bf328d	 0xc6bf328d
0050	 0x0d3da91a	 0x0d3da91a
0051	 0x63d6adc7	 0x63d6adc7
0052	 0x84c99409	 0x84c99409
0053	 0x2523114a	 0x2523114a
0054	 0x93783826	 0x93783826
0055	 0x68c763d1	 0x68c763d1
0056	 0x681c7bd0	 0x681c7bd0
0057	 0x4ae88595	 0x4ae88595
0058	 0x4d32739a	 0x4d32739a
0059	 0xd15f92a2	 0xd15f92a2
005a	 0x15963b2b	 0x15963b2b
005b	 0x238b4947	 0x238b4947
005c	 0xd10de2a2	 0xd10de2a2
005d	 0xfd185cfa	 0xfd185cfa
005e	 0x439e3f87	 0x439e3f87
005f	 0x6c58ddd8	 0x6c58ddd8
0060	 0x2162d542	 0x2162d542
0061	 0x94829829	 0x94829829
0062	 0x2560b54a	 0x2560b54a
0063	 0x89ec7a13	 0x89ec7a13
0064	 0xec8c56d9	 0xec8c56d9
0065	 0xe222e4c4	 0xe222e4c4
0066	 0xbefa867d	 0xbefa867d
0067	 0x2b6b1d56	 0x2b6b1d56
0068	 0x4ff4339f	 0x4ff4339f
0069	 0x9f0d9c3e	 0x9f0d9c3e
006a	 0xaa656054	 0xaa656054
006b	 0xf77f80ee	 0xf77f80ee
006c	 0x29def753	 0x29def753
006d	 0xcf42dc9e	 0xcf42dc9e
006e	 0x3923af72	 0x3923af72
006f	 0x3f16237e	 0x3f16237e
0070	 0xc5f7ec8b	 0xc5f7ec8b
0071	 0x09ca8113	 0x09ca8113
0072	 0x9eac9e3d	 0x9eac9e3d
0073	 0x71d93fe3	 0x71d93fe3
0074	 0x709d23e1	 0x709d23e1
0075	 0x48902591	 0x48902591
0076	 0x8f981c1f	 0x8f981c1f
0077	 0xd06cd0a0	 0xd06cd0a0
0078	 0x3ceb6179	 0x3ceb6179
0079	 0x1bff2337	 0x1bff2337
007a	 0x818ad003	 0x818ad003
007b	 0x986a9430	 0x986a9430
007c	 0x098a3713	 0x098a3713
007d	 0xde5e9abc	 0xde5e9abc
007e	 0x77e22bef	 0x77e22bef
007f	 0xa61e044c	 0xa61e044c
0080	 0x9037f020	 0x9037f020
0081	 0x42ed6585	 0x42ed6585
0082	 0x09205712	 0x09205712
0083	 0x48006190	 0x48006190
0084	 0x0c159918	 0x0c159918
0085	 0x5cbe1fb9	 0x5cbe1fb9
0086	 0x09183f12	 0x09183f12
0087	 0xbff4a07f	 0xbff4a07f
0088	 0xc2b2fa85	 0xc2b2fa85
0089	 0xf95324f2	 0xf95324f2
008a	 0x03d98f07	 0x03d98f07
008b	 0xae43845c	 0xae43845c
008c	 0x7bdaa5f7	 0x7bdaa5f7
008d	 0xeafa92d5	 0xeafa92d5
008e	 0x755cb5ea	 0x755cb5ea
008f	 0x625785c4	 0x625785c4
0090	 0xb41de068	 0xb41de068
0091	 0x9eea443d	 0x9eea443d
0092	 0x69eed9d3	 0x69eed9d3
0093	 0xcd38de9a	 0xcd38de9a
0094	 0x1620bb2c	 0x1620bb2c
0095	 0x1b1bd736	 0x1b1bd736
0096	 0xf35dece6	 0xf35dece6
0097	 0x91c98e23	 0x91c98e23
0098	 0x86a6000d	 0x86a6000d
0099	 0x3fe8a37f	 0x3fe8a37f
009a	 0x9ee4983d	 0x9ee4983d
009b	 0x6ec14fdd	 0x6ec14fdd
009c	 0xcf5b3c9e	 0xcf5b3c9e
009d	 0xe965c8d2	 0xe965c8d2
009e	 0xd7d648af	 0xd7d648af
009f	 0xfe699efc	 0xfe699efc
00a0	 0xb464bc68	 0xb464bc68
00a1	 0x4c802199	 0x4c802199
00a2	 0xe30b28c6	 0xe30b28c6
00a3	 0x8819b610	 0x8819b610
00a4	 0x00a98b01	 0x00a98b01
00a5	 0xabd84857	 0xabd84857
00a6	 0xdf0c26be	 0xdf0c26be
00a7	 0x5f7297be	 0x5f7297be
00a8	 0xd4df72a9	 0xd4df72a9
00a9	 0x405e9d80	 0x405e9d80
00aa	 0xf4feece9	 0xf4feece9
00ab	 0x0d5af71a	 0x0d5af71a
00ac	 0x4557038a	 0x4557038a
00ad	 0xf1af38e3	 0xf1af38e3
00ae	 0xa651e84c	 0xa651e84c
00af	 0x3ebb557d	 0x3ebb557d
00b0	 0x12878525	 0x12878525
00b1	 0x3a2df974	 0x3a2df974
00b2	 0xe32844c6	 0xe32844c6
00b3	 0x34f9ed69	 0x34f9ed69
00b4	 0x085b0510	 0x085b0510
00b5	 0x52e279a5	 0x52e279a5
00b6	 0x5585edab	 0x5585edab
00b7	 0x3436bb68	 0x3436bb68
00b8	 0x503a51a0	 0x503a51a0
00b9	 0x83141206	 0x83141206
00ba	 0x0d3b8f1a	 0x0d3b8f1a
00bb	 0x2b477b56	 0x2b477b56
00bc	 0xc1d8f283	 0xc1d8f283
00bd	 0x2fa5e75f	 0x2fa5e75f
00be	 0x789295f1	 0x789295f1
00bf	 0x9173a622	 0x9173a622
00c0	 0xfec136fd	 0xfec136fd
00c1	 0x0632cd0c	 0x0632cd0c
00c2	 0x55b92bab	 0x55b92bab
00c3	 0x35f07f6b	 0x35f07f6b
00c4	 0xe4a02ac9	 0xe4a02ac9
00c5	 0x5fe963bf	 0x5fe963bf
00c6	 0x08ee3f11	 0x08ee3f11
00c7	 0x7d1cfbfa	 0x7d1cfbfa
00c8	 0xa2519a44	 0xa2519a44
00c9	 0xb8280470	 0xb8280470
00ca	 0x836d7a06	 0x836d7a06
00cb	 0x477dd98e	 0x477dd98e
00cc	 0x7bac0ff7	 0x7bac0ff7
00cd	 0xd2d8cea5	 0xd2d8cea5
00ce	 0xa71b4c4e	 0xa71b4c4e
00cf	 0x7e7997fc	 0x7e7997fc
00d0	 0x080cd710	 0x080cd710
00d1	 0xee8d9cdd	 0xee8d9cdd
00d2	 0xd2f0dea5	 0xd2f0dea5
00d3	 0x02d46d05	 0x02d46d05
00d4	 0x77a3ffef	 0x77a3ffef
00d5	 0x1e5c0b3c	 0x1e5c0b3c
00d6	 0x04281d08	 0x04281d08
00d7	 0x78ec57f1	 0x78ec57f1
00d8	 0x2b804f57	 0x2b804f57
00d9	 0xa779724e	 0xa779724e
00da	 0xb827b470	 0xb827b470
00db	 0x2eb5155d	 0x2eb5155d
00dc	 0xac5b5858	 0xac5b5858
00dd	 0xfe96f4fd	 0xfe96f4fd
00de	 0x7b2f11f6	 0x7b2f11f6
00df	 0x1774212e	 0x1774212e
00e0	 0xcc256298	 0xcc256298
00e1	 0xc0fd6881	 0xc0fd6881
00e2	 0xcfc25c9f	 0xcfc25c9f
00e3	 0x993cb432	 0x993cb432
00e4	 0x7e517dfc	 0x7e517dfc
00e5	 0xc5696c8a	 0xc5696c8a
00e6	 0xdad686b5	 0xdad686b5
00e7	 0xa82bd050	 0xa82bd050
00e8	 0xb2e17065	 0xb2e17065
00e9	 0x20a75d41	 0x20a75d41
00ea	 0x00bd3b01	 0x00bd3b01
00eb	 0x6b642dd6	 0x6b642dd6
00ec	 0x4031cd80	 0x4031cd80
00ed	 0xb9ef5473	 0xb9ef5473
00ee	 0x5ed0e1bd	 0x5ed0e1bd
00ef	 0x67ca47cf	 0x67ca47cf
00f0	 0xa785da4f	 0xa785da4f
00f1	 0xcb013096	 0xcb013096
00f2	 0xcde0a89b	 0xcde0a89b
00f3	 0xec805ad9	 0xec805ad9
00f4	 0x4053a780	 0x4053a780
00f5	 0x68008bd0	 0x68008bd0
00f6	 0xd95c7cb2	 0xd95c7cb2
00f7	 0x3d22657a	 0x3d22657a
00f8	 0x164fff2c	 0x164fff2c
00f9	 0xeb10c2d6	 0xeb10c2d6
00fa	 0xd7410aae	 0xd7410aae
00fb	 0xb5c2206b	 0xb5c2206b
00fc	 0x863a6c0c	 0x863a6c0c
00fd	 0xdfb0f0bf	 0xdfb0f0bf
00fe	 0x0cc3bd19	 0x0cc3bd19
00ff	 0xe4a308c9	 0xe4a308c9
0100	 0x65693fca	 0x65693fca
0101	 0xc9d7f493	 0xc9d7f493
0102	 0x8bbec017	 0x8bbec017
0103	 0x55b65dab	 0x55b65dab
0104	 0x40157f80	 0x40157f80
0105	 0xe4d066c9	 0xe4d066c9
0106	 0x34dcff69	 0x34dcff69
0107	 0x8bd71417	 0x8bd71417
0108	 0xfa66f8f4	 0xfa66f8f4
0109	 0xb5d4a46b	 0xb5d4a46b
010a	 0x0a862915	 0x0a862915
010b	 0x63c5efc7	 0x63c5efc7
010c	 0xe0403ac0	 0xe0403ac0
010d	 0x0e6acb1c	 0x0e6acb1c
010e	 0xc08aa481	 0xc08aa481
010f	 0xdce566b9	 0xdce566b9
0110	 0xefca8edf	 0xefca8edf
0111	 0xda80b4b5	 0xda80b4b5
0112	 0x348fa369	 0x348fa369
0113	 0x03b5b907	 0x03b5b907
0114	 0xeac200d5	 0xeac200d5
0115	 0xd647fcac	 0xd647fcac
0116	 0x3b3b0f76	 0x3b3b0f76
0117	 0x7a10e1f4	 0x7a10e1f4
0118	 0x7a815ff5	 0x7a815ff5
0119	 0x07d2030f	 0x07d2030f
011a	 0xee1f90dc	 0xee1f90dc
011b	 0xd9269ab2	 0xd9269ab2
011c	 0x72ce33e5	 0x72ce33e5
011d	 0x986bde30	 0x986bde30
011e	 0x666899cc	 0x666899cc
011f	 0xe93862d2	 0xe93862d2
0120	 0xff64c8fe	 0xff64c8fe
0121	 0x69ba71d3	 0x69ba71d3
0122	 0x90465220	 0x90465220
0123	 0x6b1573d6	 0x6b1573d6
0124	 0x48442f90	 0x48442f90
0125	 0x82965005	 0x82965005
0126	 0x8319a806	 0x8319a806
0127	 0xef56cade	 0xef56cade
0128	 0xd8ba30b1	 0xd8ba30b1
0129	 0x2fa7dd5f	 0x2fa7dd5f
012a	 0x8a604614	 0x8a604614
012b	 0xf75b22ee	 0xf75b22ee
012c	 0xd52f56aa	 0xd52f56aa
012d	 0x73c331e7	 0x73c331e7
012e	 0xcb609896	 0xcb609896
012f	 0x5c02f9b8	 0x5c02f9b8
0130	 0xcbb2f097	 0xcbb2f097
0131	 0x24042948	 0x24042948
0132	 0x3395cd67	 0x3395cd67
0133	 0xb62c886c	 0xb62c886c
0134	 0xab470a56	 0xab470a56
0135	 0xcbaa5e97	 0xcbaa5e97
0136	 0x1bdbcf37	 0x1bdbcf37
0137	 0x44efcf89	 0x44efcf89
0138	 0x2dec6d5b	 0x2dec6d5b
0139	 0x33b53367	 0x33b53367
013a	 0xcc5b4698	 0xcc5b4698
013b	 0x8d9a841b	 0x8d9a841b
013c	 0xc16ea882	 0xc16ea882
013d	 0x2a3fbd54	 0x2a3fbd54
013e	 0xcd35a69a	 0xcd35a69a
013f	 0xb16c2a62	 0xb16c2a62
0140	 0xbaf00475	 0xbaf00475
0141	 0xe59cdccb	 0xe59cdccb
0142	 0xaff1145f	 0xaff1145f
0143	 0x3511fb6a	 0x3511fb6a
0144	 0x613591c2	 0x613591c2
0145	 0x1f332b3e	 0x1f332b3e
0146	 0xbda4807b	 0xbda4807b
0147	 0xb5e2ee6b	 0xb5e2ee6b
0148	 0x19b31733	 0x19b31733
0149	 0xc2190484	 0xc2190484
014a	 0xb5e3946b	 0xb5e3946b
014b	 0xc8dbc491	 0xc8dbc491
014c	 0xc4572488	 0xc4572488
014d	 0xc9708692	 0xc9708692
014e	 0x8a6abe14	 0x8a6abe14
014f	 0xff5af8fe	 0xff5af8fe
0150	 0x12170524	 0x12170524
0151	 0xaa838c55	 0xaa838c55
0152	 0xc38b2887	 0xc38b2887
0153	 0xcd9cc69b	 0xcd9cc69b
0154	 0x623ac3c4	 0x623ac3c4
0155	 0x669fb1cd	 0x669fb1cd
0156	 0xf956bef2	 0xf956bef2
0157	 0xcef72a9d	 0xcef72a9d
0158	 0x72692de4	 0x72692de4
0159	 0x20b25341	 0x20b25341
015a	 0x8d8c2e1b	 0x8d8c2e1b
015b	 0xa3d5e047	 0xa3d5e047
015c	 0xed73ccda	 0xed73ccda
015d	 0xd2a48aa5	 0xd2a48aa5
015e	 0x9242e224	 0x9242e224
015f	 0x657665ca	 0x657665ca
0160	 0xa4e2f049	 0xa4e2f049
0161	 0x7e7739fc	 0x7e7739fc
0162	 0x89570612	 0x89570612
0163	 0x6b63f1d6	 0x6b63f1d6
0164	 0x0141a302	 0x0141a302
0165	 0xf71ef4ee	 0xf71ef4ee
0166	 0x689589d1	 0x689589d1
0167	 0xdeb382bd	 0xdeb382bd
0168	 0xf529aeea	 0xf529aeea
0169	 0x1d201d3a	 0x1d201d3a
016a	 0x0ea8131d	 0x0ea8131d
016b	 0x56ffd9ad	 0x56ffd9ad
016c	 0x7f0fa3fe	 0x7f0fa3fe
016d	 0x2aeacd55	 0x2aeacd55
016e	 0x14c11329	 0x14c11329
016f	 0x7d256bfa	 0x7d256bfa
0170	 0x85cec80b	 0x85cec80b
0171	 0x6cf6e1d9	 0x6cf6e1d9
0172	 0xa907b252	 0xa907b252
0173	 0x6fbe77df	 0x6fbe77df
0174	 0x9bf52c37	 0x9bf52c37
0175	 0x819ff203	 0x819ff203
0176	 0xddc3debb	 0xddc3debb
0177	 0x655ef9ca	 0x655ef9ca
0178	 0xf5cf9ceb	 0xf5cf9ceb
0179	 0xfcc162f9	 0xfcc162f9
017a	 0x994a4432	 0x994a4432
017b	 0xc890aa91	 0xc890aa91
017c	 0x9e35a23c	 0x9e35a23c
017d	 0x0b124916	 0x0b124916
017e	 0x12a84f25	 0x12a84f25
017f	 0xc98f0c93	 0xc98f0c93
0180	 0xb6158c6c	 0xb6158c6c
0181	 0x714185e2	 0x714185e2
0182	 0x8710280e	 0x8710280e
0183	 0x21c35743	 0x21c35743
0184	 0x4ac06395	 0x4ac06395
0185	 0x02d1af05	 0x02d1af05
0186	 0x9404c028	 0x9404c028
0187	 0x8500880a	 0x8500880a
0188	 0x0ef5f71d	 0x0ef5f71d
0189	 0x6cb525d9	 0x6cb525d9
018a	 0x6245c1c4	 0x6245c1c4
018b	 0xfc7f5af8	 0xfc7f5af8
018c	 0x02b0cf05	 0x02b0cf05
018d	 0xefaa02df	 0xefaa02df
018e	 0x8d7b961a	 0x8d7b961a
018f	 0x279a4b4f	 0x279a4b4f
0190	 0xd5b23aab	 0xd5b23aab
0191	 0x665623cc	 0x665623cc
0192	 0x74a36de9	 0x74a36de9
0193	 0x1e49953c	 0x1e49953c
0194	 0x90ce4621	 0x90ce4621
0195	 0xb3232466	 0xb3232466
0196	 0x5f3b2fbe	 0x5f3b2fbe
0197	 0x715f35e2	 0x715f35e2
0198	 0xd1f7bca3	 0xd1f7bca3
0199	 0x71da63e3	 0x71da63e3
019a	 0xa32d8a46	 0xa32d8a46
019b	 0x8482e609	 0x8482e609
019c	 0xa70c284e	 0xa70c284e
019d	 0x8900f612	 0x8900f612
019e	 0xb77dea6e	 0xb77dea6e
019f	 0x3dee257b	 0x3dee257b
01a0	 0xd35fd6a6	 0xd35fd6a6
01a1	 0xf6f3beed	 0xf6f3beed
01a2	 0xdfb47cbf	 0xdfb47cbf
01a3	 0xc7e82e8f	 0xc7e82e8f
01a4	 0x0c09d518	 0x0c09d518
01a5	 0xf6c358ed	 0xf6c358ed
01a6	 0xdc0a28b8	 0xdc0a28b8
01a7	 0xe001fcc0	 0xe001fcc0
01a8	 0x76efeded	 0x76efeded
01a9	 0x58d01db1	 0x58d01db1
01aa	 0xca54a094	 0xca54a094
01ab	 0xf0124ee0	 0xf0124ee0
01ac	 0x7892adf1	 0x7892adf1
01ad	 0xab262856	 0xab262856
01ae	 0x23b24b47	 0x23b24b47
01af	 0xecf19cd9	 0xecf19cd9
01b0	 0x9c995e39	 0x9c995e39
01b1	 0x8d99561b	 0x8d99561b
01b2	 0x82f65605	 0x82f65605
01b3	 0xb6f6246d	 0xb6f6246d
01b4	 0x251e0f4a	 0x251e0f4a
01b5	 0x4da1479b	 0x4da1479b
01b6	 0x9fd4b03f	 0x9fd4b03f
01b7	 0x782fe3f0	 0x782fe3f0
01b8	 0x8cb98a19	 0x8cb98a19
01b9	 0xa5f5524b	 0xa5f5524b
01ba	 0xaace0055	 0xaace0055
01bb	 0x3c649178	 0x3c649178
01bc	 0x074f5d0e	 0x074f5d0e
01bd	 0x3de8957b	 0x3de8957b
01be	 0xf5dbb6eb	 0xf5dbb6eb
01bf	 0xbecbae7d	 0xbecbae7d
01c0	 0xcd99d29b	 0xcd99d29b
01c1	 0x4485eb89	 0x4485eb89
01c2	 0x95dbfe2b	 0x95dbfe2b
01c3	 0x298a7553	 0x298a7553
01c4	 0xbf75f67e	 0xbf75f67e
01c5	 0x436bf386	 0x436bf386
01c6	 0x68bdc3d1	 0x68bdc3d1
01c7	 0x42efe385	 0x42efe385
01c8	 0xa8ef9451	 0xa8ef9451
01c9	 0x0569050a	 0x0569050a
01ca	 0xac6cae58	 0xac6cae58
01cb	 0x4470b188	 0x4470b188
01cc	 0x360d3b6c	 0x360d3b6c
01cd	 0x2cd73f59	 0x2cd73f59
01ce	 0x127d2f24	 0x127d2f24
01cf	 0x57635dae	 0x57635dae
01d0	 0x615c33c2	 0x615c33c2
01d1	 0xd5b87aab	 0xd5b87aab
01d2	 0xfc9870f9	 0xfc9870f9
01d3	 0x737c23e6	 0x737c23e6
01d4	 0xe93c88d2	 0xe93c88d2
01d5	 0x5f9259bf	 0x5f9259bf
01d6	 0x4da8619b	 0x4da8619b
01d7	 0x1b08ff36	 0x1b08ff36
01d8	 0x17ed0b2f	 0x17ed0b2f
01d9	 0x3b0a3376	 0x3b0a3376
01da	 0xfbc3a6f7	 0xfbc3a6f7
01db	 0x30edad61	 0x30edad61
01dc	 0xea5742d4	 0xea5742d4
01dd	 0x574123ae	 0x574123ae
01de	 0x4ed9b59d	 0x4ed9b59d
01df	 0xe45fa6c8	 0xe45fa6c8
01e0	 0x619b7fc3	 0x619b7fc3
01e1	 0x8af00615	 0x8af00615
01e2	 0x781eb1f0	 0x781eb1f0
01e3	 0x6e622ddc	 0x6e622ddc
01e4	 0x8b5cc616	 0x8b5cc616
01e5	 0x15437b2a	 0x15437b2a
01e6	 0xee378adc	 0xee378adc
01e7	 0x1d02373a	 0x1d02373a
01e8	 0x8cccec19	 0x8cccec19
01e9	 0x1277dd24	 0x1277dd24
01ea	 0xba25ec74	 0xba25ec74
01eb	 0xe85282d0	 0xe85282d0
01ec	 0xbc787678	 0xbc787678
01ed	 0x80354200	 0x80354200
01ee	 0xa0f44441	 0xa0f44441
01ef	 0x8d278e1a	 0x8d278e1a
01f0	 0x96d2b42d	 0x96d2b42d
01f1	 0x2dab8f5b	 0x2dab8f5b
01f2	 0xd621bcac	 0xd621bcac
01f3	 0xe99392d3	 0xe99392d3
01f4	 0x1981b333	 0x1981b333
01f5	 0xb36e5a66	 0xb36e5a66
01f6	 0xa2ce4045	 0xa2ce4045
01f7	 0x17228b2e	 0x17228b2e
01f8	 0xd16a3aa2	 0xd16a3aa2
01f9	 0x4f11039e	 0x4f11039e
01fa	 0x2da67f5b	 0x2da67f5b
01fb	 0x7ed637fd	 0x7ed637fd
01fc	 0xa77bd84e	 0xa77bd84e
01fd	 0x3e82a17d	 0x3e82a17d
01fe	 0x4f8fe19f	 0x4f8fe19f
01ff	 0xe2e210c5	 0xe2e210c5
0200	 0x383cd970	 0x383cd970
0201	 0xf72a12ee	 0xf72a12ee
0202	 0x21149342	 0x21149342
0203	 0x1a275334	 0x1a275334
0204	 0x42164984	 0x42164984
0205	 0x54c1f5a9	 0x54c1f5a9
0206	 0xac8f8259	 0xac8f8259
0207	 0xf970fcf2	 0xf970fcf2
0208	 0x765ff3ec	 0x765ff3ec
0209	 0x9bf4a237	 0x9bf4a237
020a	 0xf1185ae2	 0xf1185ae2
020b	 0xa66fc64c	 0xa66fc64c
020c	 0xb92c6472	 0xb92c6472
020d	 0xecb838d9	 0xecb838d9
020e	 0x222f8944	 0x222f8944
020f	 0x50762fa0	 0x50762fa0
0210	 0x9bd4e837	 0x9bd4e837
0211	 0x806a9200	 0x806a9200
0212	 0xd02a36a0	 0xd02a36a0
0213	 0x0af47115	 0x0af47115
0214	 0x9e458a3c	 0x9e458a3c
0215	 0xcfad4c9f	 0xcfad4c9f
0216	 0x655e51ca	 0x655e51ca
0217	 0x45b4898b	 0x45b4898b
0218	 0x83091806	 0x83091806
0219	 0x7c01c1f8	 0x7c01c1f8
021a	 0x240e8548	 0x240e8548
021b	 0x1ed6333d	 0x1ed6333d
021c	 0xc2151c84	 0xc2151c84
021d	 0x99250e32	 0x99250e32
021e	 0x91163c22	 0x91163c22
021f	 0x8a8ae815	 0x8a8ae815
0220	 0xe655e4cc	 0xe655e4cc
0221	 0xb22c0e64	 0xb22c0e64
0222	 0xf755a4ee	 0xf755a4ee
0223	 0x0c91eb19	 0x0c91eb19
0224	 0x61fa7bc3	 0x61fa7bc3
0225	 0xa65f5e4c	 0xa65f5e4c
0226	 0x6fddabdf	 0x6fddabdf
0227	 0x7f7431fe	 0x7f7431fe
0228	 0x2580ab4b	 0x2580ab4b
0229	 0x39d75b73	 0x39d75b73
022a	 0x9adbf835	 0x9adbf835
022b	 0x2580794b	 0x2580794b
022c	 0x0581030b	 0x0581030b
022d	 0xf5d81eeb	 0xf5d81eeb
022e	 0xf546fcea	 0xf546fcea
022f	 0xff873eff	 0xff873eff
0230	 0xbb3acc76	 0xbb3acc76
0231	 0xb4ed8669	 0xb4ed8669
0232	 0x7749e1ee	 0x7749e1ee
0233	 0x2556bf4a	 0x2556bf4a
0234	 0x0be01517	 0x0be01517
0235	 0xf6c72eed	 0xf6c72eed
0236	 0xe77090ce	 0xe77090ce
0237	 0x9bf6f437	 0x9bf6f437
0238	 0x62a1a9c5	 0x62a1a9c5
0239	 0xd7d470af	 0xd7d470af
023a	 0x0e93bb1d	 0x0e93bb1d
023b	 0xe5a59ccb	 0xe5a59ccb
023c	 0xe97b12d2	 0xe97b12d2
023d	 0x48a06d91	 0x48a06d91
023e	 0xb884c871	 0xb884c871
023f	 0x4792338f	 0x4792338f
0240	 0xecbea0d9	 0xecbea0d9
0241	 0xe0edfac1	 0xe0edfac1
0242	 0x2d79e95a	 0x2d79e95a
0243	 0x8159f002	 0x8159f002
0244	 0x15615d2a	 0x15615d2a
0245	 0x6a93b9d5	 0x6a93b9d5
0246	 0x903a0220	 0x903a0220
0247	 0x7243d5e4	 0x7243d5e4
0248	 0xc607128c	 0xc607128c
0249	 0x00180300	 0x00180300
024a	 0x4d08c99a	 0x4d08c99a
024b	 0xe83c9cd0	 0xe83c9cd0
024c	 0xa6ce4e4d	 0xa6ce4e4d
024d	 0x5b0cf5b6	 0x5b0cf5b6
024e	 0x8552a00a	 0x8552a00a
024f	 0x9492c029	 0x9492c029
0250	 0x2bdc5f57	 0x2bdc5f57
0251	 0xae2c6a5c	 0xae2c6a5c
0252	 0x2418bb48	 0x2418bb48
0253	 0xe2727ec4	 0xe2727ec4
0254	 0xa2a94e45	 0xa2a94e45
0255	 0x2734014e	 0x2734014e
0256	 0x071d010e	 0x071d010e
0257	 0x2b21d356	 0x2b21d356
0258	 0x120be924	 0x120be924
0259	 0xf48110e9	 0xf48110e9
025a	 0x68ce21d1	 0x68ce21d1
025b	 0x83fc7607	 0x83fc7607
025c	 0xf905b8f2	 0xf905b8f2
025d	 0x6a6cbbd4	 0x6a6cbbd4
025e	 0x76f385ed	 0x76f385ed
025f	 0x222feb44	 0x222feb44
0260	 0xb84f0a70	 0xb84f0a70
0261	 0xa467d648	 0xa467d648
0262	 0xc2195a84	 0xc2195a84
0263	 0x10376920	 0x10376920
0264	 0x32a2ed65	 0x32a2ed65
0265	 0xbdd7027b	 0xbdd7027b
0266	 0xf1bc8ce3	 0xf1bc8ce3
0267	 0xb117ea62	 0xb117ea62
0268	 0xefcb28df	 0xefcb28df
0269	 0x7eae9bfd	 0x7eae9bfd
026a	 0xe936c6d2	 0xe936c6d2
026b	 0x4d5c2f9a	 0x4d5c2f9a
026c	 0xce6c4c9c	 0xce6c4c9c
026d	 0x17cebb2f	 0x17cebb2f
026e	 0x496a7592	 0x496a7592
026f	 0xa5d0b04b	 0xa5d0b04b
0270	 0x1091a321	 0x1091a321
0271	 0x4b1f3f96	 0x4b1f3f96
0272	 0xfb2ec4f6	 0xfb2ec4f6
0273	 0x47ffad8f	 0x47ffad8f
0274	 0x4ef9399d	 0x4ef9399d
0275	 0x1b6bc336	 0x1b6bc336
0276	 0x2e7ba35c	 0x2e7ba35c
0277	 0x206d1f40	 0x206d1f40
0278	 0x9f1fd63e	 0x9f1fd63e
0279	 0xdfffa0bf	 0xdfffa0bf
027a	 0xfa55b6f4	 0xfa55b6f4
027b	 0x8692c20d	 0x8692c20d
027c	 0xf80d0cf0	 0xf80d0cf0
027d	 0x5801f9b0	 0x5801f9b0
027e	 0x897a7012	 0x897a7012
027f	 0xbe9c127d	 0xbe9c127d
0280	 0xa1df2643	 0xa1df2643
0281	 0x1991a333	 0x1991a333
0282	 0x7fcbfdff	 0x7fcbfdff
0283	 0xace24e59	 0xace24e59
0284	 0x3c172f78	 0x3c172f78
0285	 0x78a13df1	 0x78a13df1
0286	 0x047d4508	 0x047d4508
0287	 0x37286f6e	 0x37286f6e
0288	 0xa6a4f04d	 0xa6a4f04d
0289	 0xc1932283	 0xc1932283
028a	 0x9cfdf439	 0x9cfdf439
028b	 0x8f97321f	 0x8f97321f
028c	 0xd9b2fab3	 0xd9b2fab3
028d	 0x639571c7	 0x639571c7
028e	 0xc4a67a89	 0xc4a67a89
028f	 0x657913ca	 0x657913ca
0290	 0x783297f0	 0x783297f0
0291	 0x66be03cd	 0x66be03cd
0292	 0xed23feda	 0xed23feda
0293	 0xb7b64c6f	 0xb7b64c6f
0294	 0xa927d052	 0xa927d052
0295	 0x49e67593	 0x49e67593
0296	 0x53a473a7	 0x53a473a7
0297	 0xc510dc8a	 0xc510dc8a
0298	 0x83b57607	 0x83b57607
0299	 0x24482148	 0x24482148
029a	 0xd6c27ead	 0xd6c27ead
029b	 0x56207dac	 0x56207dac
029c	 0x19e91333	 0x19e91333
029d	 0xa6d8264d	 0xa6d8264d
029e	 0xb9318e72	 0xb9318e72
029f	 0x5d0eadba	 0x5d0eadba
02a0	 0xee46f2dc	 0xee46f2dc
02a1	 0x59635fb2	 0x59635fb2
02a2	 0xfd29cefa	 0xfd29cefa
02a3	 0xa712a44e	 0xa712a44e
02a4	 0x601621c0	 0x601621c0
02a5	 0x2f6a675e	 0x2f6a675e
02a6	 0xc4942c89	 0xc4942c89
02a7	 0x1bad6537	 0x1bad6537
02a8	 0x5a6c69b4	 0x5a6c69b4
02a9	 0x50bd9ba1	 0x50bd9ba1
02aa	 0xe1f652c3	 0xe1f652c3
02ab	 0xc5a5a48b	 0xc5a5a48b
02ac	 0x51fa59a3	 0x51fa59a3
02ad	 0xb1d91663	 0xb1d91663
02ae	 0x861eae0c	 0x861eae0c
02af	 0xa1c3e243	 0xa1c3e243
02b0	 0x5d973bbb	 0x5d973bbb
02b1	 0xd800b6b0	 0xd800b6b0
02b2	 0xb6906a6d	 0xb6906a6d
02b3	 0xef4e5ade	 0xef4e5ade
02b4	 0xf58d1aeb	 0xf58d1aeb
02b5	 0xe51c16ca	 0xe51c16ca
02b6	 0xf8af72f1	 0xf8af72f1
02b7	 0x7e4509fc	 0x7e4509fc
02b8	 0xa5a4c64b	 0xa5a4c64b
02b9	 0xc752908e	 0xc752908e
02ba	 0x5dac75bb	 0x5dac75bb
02bb	 0x375da96e	 0x375da96e
02bc	 0xbdf1c87b	 0xbdf1c87b
02bd	 0x28674550	 0x28674550
02be	 0xdb30dab6	 0xdb30dab6
02bf	 0xd9bfb4b3	 0xd9bfb4b3
02c0	 0xce5e6c9c	 0xce5e6c9c
02c1	 0x78d50bf1	 0x78d50bf1
02c2	 0x9ccad039	 0x9ccad039
02c3	 0xaa806c55	 0xaa806c55
02c4	 0x78f7c1f1	 0x78f7c1f1
02c5	 0x32aa8165	 0x32aa8165
02c6	 0xba194474	 0xba194474
02c7	 0x91dec823	 0x91dec823
02c8	 0xe6f990cd	 0xe6f990cd
02c9	 0x30260360	 0x30260360
02ca	 0x7db7e1fb	 0x7db7e1fb
02cb	 0xe23f86c4	 0xe23f86c4
02cc	 0xec9a64d9	 0xec9a64d9
02cd	 0xb211ac64	 0xb211ac64
02ce	 0x28eb1351	 0x28eb1351
02cf	 0xc4e92489	 0xc4e92489
02d0	 0xa7978c4f	 0xa7978c4f
02d1	 0x71df5be3	 0x71df5be3
02d2	 0xe00c04c0	 0xe00c04c0
02d3	 0x087fdb10	 0x087fdb10
02d4	 0x24811549	 0x24811549
02d5	 0xdb84a8b7	 0xdb84a8b7
02d6	 0x2bb4a357	 0x2bb4a357
02d7	 0xcd41a49a	 0xcd41a49a
02d8	 0x56c5c5ad	 0x56c5c5ad
02d9	 0x4b16f196	 0x4b16f196
02da	 0x3aab9b75	 0x3aab9b75
02db	 0x4b024396	 0x4b024396
02dc	 0x6f7f2fde	 0x6f7f2fde
02dd	 0xea2752d4	 0xea2752d4
02de	 0xd09056a1	 0xd09056a1
02df	 0xace72e59	 0xace72e59
02e0	 0x5efd99bd	 0x5efd99bd
02e1	 0x88dea611	 0x88dea611
02e2	 0x8d47021a	 0x8d47021a
02e3	 0xbee3a27d	 0xbee3a27d
02e4	 0x0d14131a	 0x0d14131a
02e5	 0x8ed98a1d	 0x8ed98a1d
02e6	 0xf9248cf2	 0xf9248cf2
02e7	 0xe8f49ed1	 0xe8f49ed1
02e8	 0x94246628	 0x94246628
02e9	 0xdfc45abf	 0xdfc45abf
02ea	 0x81daa003	 0x81daa003
02eb	 0xb41cda68	 0xb41cda68
02ec	 0x8aeb2215	 0x8aeb2215
02ed	 0x4fb7339f	 0x4fb7339f
02ee	 0x5423a7a8	 0x5423a7a8
02ef	 0xd520d4aa	 0xd520d4aa
02f0	 0x290b9152	 0x290b9152
02f1	 0x0351ef06	 0x0351ef06
02f2	 0xbe2ece7c	 0xbe2ece7c
02f3	 0x7902c9f2	 0x7902c9f2
02f4	 0xd25bbca4	 0xd25bbca4
02f5	 0xd79828af	 0xd79828af
02f6	 0x86cc020d	 0x86cc020d
02f7	 0x4f3eb39e	 0x4f3eb39e
02f8	 0x54f075a9	 0x54f075a9
02f9	 0xad8d405b	 0xad8d405b
02fa	 0x6557f1ca	 0x6557f1ca
02fb	 0x8dc64e1b	 0x8dc64e1b
02fc	 0xe5e942cb	 0xe5e942cb
02fd	 0x35904f6b	 0x35904f6b
02fe	 0x8668020c	 0x8668020c
02ff	 0xeabd16d5	 0xeabd16d5
0300	 0xa8fc7451	 0xa8fc7451
0301	 0x9678322c	 0x9678322c
0302	 0xc9366692	 0xc9366692
0303	 0x47f44b8f	 0x47f44b8f
0304	 0x4ec3159d	 0x4ec3159d
0305	 0x0c6f8518	 0x0c6f8518
0306	 0x21ce0543	 0x21ce0543
0307	 0x8c26e218	 0x8c26e218
0308	 0x15c4ef2b	 0x15c4ef2b
0309	 0x5b90a3b7	 0x5b90a3b7
030a	 0x4bf68f97	 0x4bf68f97
030b	 0xe5f59ccb	 0xe5f59ccb
030c	 0x3a449174	 0x3a449174
030d	 0xb241a864	 0xb241a864
030e	 0xbae06a75	 0xbae06a75
030f	 0x74a2f5e9	 0x74a2f5e9
0310	 0xa0cb4441	 0xa0cb4441
0311	 0x575073ae	 0x575073ae
0312	 0x7190c9e3	 0x7190c9e3
0313	 0x128f2725	 0x128f2725
0314	 0x4775178e	 0x4775178e
0315	 0x3fce9b7f	 0x3fce9b7f
0316	 0x300d9560	 0x300d9560
0317	 0xbd742e7a	 0xbd742e7a
0318	 0xc9fcd493	 0xc9fcd493
0319	 0x68ad81d1	 0x68ad81d1
031a	 0x21497742	 0x21497742
031b	 0xd861c8b0	 0xd861c8b0
031c	 0x04880909	 0x04880909
031d	 0x901a3c20	 0x901a3c20
031e	 0xf5cfdeeb	 0xf5cfdeeb
031f	 0x43797186	 0x43797186
0320	 0xa132fe42	 0xa132fe42
0321	 0xaa99ae55	 0xaa99ae55
0322	 0x1730f92e	 0x1730f92e
0323	 0x056a610a	 0x056a610a
0324	 0x1c5cc538	 0x1c5cc538
0325	 0x2fe46f5f	 0x2fe46f5f
0326	 0x602dafc0	 0x602dafc0
0327	 0x02ad9905	 0x02ad9905
0328	 0x8bb32617	 0x8bb32617
0329	 0x1b82db37	 0x1b82db37
032a	 0x85a3ac0b	 0x85a3ac0b
032b	 0xfe81d0fd	 0xfe81d0fd
032c	 0x33fead67	 0x33fead67
032d	 0x3d290f7a	 0x3d290f7a
032e	 0x1c395f38	 0x1c395f38
032f	 0xe1a786c3	 0xe1a786c3
0330	 0xb9aea673	 0xb9aea673
0331	 0x34d2e769	 0x34d2e769
0332	 0xe6c9f2cd	 0xe6c9f2cd
0333	 0x02dcf705	 0x02dcf705
0334	 0x782521f0	 0x782521f0
0335	 0x369ffd6d	 0x369ffd6d
0336	 0xd99154b3	 0xd99154b3
0337	 0xed1a1cda	 0xed1a1cda
0338	 0x4bc2e397	 0x4bc2e397
0339	 0x726fb1e4	 0x726fb1e4
033a	 0xfe182cfc	 0xfe182cfc
033b	 0xdf8cb2bf	 0xdf8cb2bf
033c	 0xdab37eb5	 0xdab37eb5
033d	 0xbb3d1a76	 0xbb3d1a76
033e	 0x23dfed47	 0x23dfed47
033f	 0x03543906	 0x03543906
0340	 0x28793b50	 0x28793b50
0341	 0xca3b1a94	 0xca3b1a94
0342	 0x09cebb13	 0x09cebb13
0343	 0x12fde925	 0x12fde925
0344	 0x00392700	 0x00392700
0345	 0x39b04973	 0x39b04973
0346	 0x6c5b87d8	 0x6c5b87d8
0347	 0xefc0bcdf	 0xefc0bcdf
0348	 0x81c70c03	 0x81c70c03
0349	 0x13930327	 0x13930327
034a	 0x2479fb48	 0x2479fb48
034b	 0x607973c0	 0x607973c0
034c	 0xdd717aba	 0xdd717aba
034d	 0x8fe5641f	 0x8fe5641f
034e	 0x43468586	 0x43468586
034f	 0xf66686ec	 0xf66686ec
0350	 0x0a8dbb15	 0x0a8dbb15
0351	 0x5ed14bbd	 0x5ed14bbd
0352	 0xd6724eac	 0xd6724eac
0353	 0xd3a434a7	 0xd3a434a7
0354	 0x04c3d909	 0x04c3d909
0355	 0x9a844e35	 0x9a844e35
0356	 0xc16f4482	 0xc16f4482
0357	 0xcf68789e	 0xcf68789e
0358	 0xdc1aa2b8	 0xdc1aa2b8
0359	 0x3ccbd179	 0x3ccbd179
035a	 0xd75c14ae	 0xd75c14ae
035b	 0x33ff0f67	 0x33ff0f67
035c	 0xa3c3a247	 0xa3c3a247
035d	 0xb470e868	 0xb470e868
035e	 0x21b02943	 0x21b02943
035f	 0x12857325	 0x12857325
0360	 0x0ba72717	 0x0ba72717
0361	 0xf65476ec	 0xf65476ec
0362	 0xffa7acff	 0xffa7acff
0363	 0xe866ded0	 0xe866ded0
0364	 0x30b03961	 0x30b03961
0365	 0x264b134c	 0x264b134c
0366	 0x8a6f8e14	 0x8a6f8e14
0367	 0x12985125	 0x12985125
0368	 0xefd8a4df	 0xefd8a4df
0369	 0xb3b91a67	 0xb3b91a67
036a	 0x6a1179d4	 0x6a1179d4
036b	 0x4a948795	 0x4a948795
036c	 0xc7f4f88f	 0xc7f4f88f
036d	 0x85eeaa0b	 0x85eeaa0b
036e	 0x071fd90e	 0x071fd90e
036f	 0x2917f952	 0x2917f952
0370	 0x16407f2c	 0x16407f2c
0371	 0x94439e28	 0x94439e28
0372	 0xc521d88a	 0xc521d88a
0373	 0x6a9ce5d5	 0x6a9ce5d5
0374	 0x39a94373	 0x39a94373
0375	 0x05f3910b	 0x05f3910b
0376	 0xb1bf6463	 0xb1bf6463
0377	 0x719747e3	 0x719747e3
0378	 0xe8dc12d1	 0xe8dc12d1
0379	 0xb5b9e06b	 0xb5b9e06b
037a	 0xd4ad2aa9	 0xd4ad2aa9
037b	 0x4270d984	 0x4270d984
037c	 0xc710788e	 0xc710788e
037d	 0xb52da66a	 0xb52da66a
037e	 0x0c589518	 0x0c589518
037f	 0xf5451aea	 0xf5451aea
0380	 0x0394c307	 0x0394c307
0381	 0x2bddc357	 0x2bddc357
0382	 0x2353cf46	 0x2353cf46
0383	 0x595d45b2	 0x595d45b2
0384	 0x9019f820	 0x9019f820
0385	 0xae2ccc5c	 0xae2ccc5c
0386	 0x8a81c615	 0x8a81c615
0387	 0x466c578c	 0x466c578c
0388	 0x39bfed73	 0x39bfed73
0389	 0xe7ed22cf	 0xe7ed22cf
038a	 0xe40226c8	 0xe40226c8
038b	 0xd78b08af	 0xd78b08af
038c	 0xb0e12461	 0xb0e12461
038d	 0x36bce16d	 0x36bce16d
038e	 0x4add5d95	 0x4add5d95
038f	 0x8bf3d817	 0x8bf3d817
0390	 0x4b9ef197	 0x4b9ef197
0391	 0x9021e020	 0x9021e020
0392	 0x03709306	 0x03709306
0393	 0x097f0312	 0x097f0312
0394	 0x0f2d5d1e	 0x0f2d5d1e
0395	 0xcf65c29e	 0xcf65c29e
0396	 0x0099b501	 0x0099b501
0397	 0xfcde82f9	 0xfcde82f9
0398	 0x4bdf3397	 0x4bdf3397
0399	 0x4731e18e	 0x4731e18e
039a	 0x69a371d3	 0x69a371d3
039b	 0x539a15a7	 0x539a15a7
039c	 0xd7f1feaf	 0xd7f1feaf
039d	 0x32eb5565	 0x32eb5565
039e	 0x0cf13119	 0x0cf13119
039f	 0xcbcb3297	 0xcbcb3297
03a0	 0xb51a0c6a	 0xb51a0c6a
03a1	 0x63cefdc7	 0x63cefdc7
03a2	 0x6b6b23d6	 0x6b6b23d6
03a3	 0x95991c2b	 0x95991c2b
03a4	 0xacce6a59	 0xacce6a59
03a5	 0x45cd778b	 0x45cd778b
03a6	 0xc8aa2e91	 0xc8aa2e91
03a7	 0x8274ca04	 0x8274ca04
03a8	 0x2f54e35e	 0x2f54e35e
03a9	 0x18271b30	 0x18271b30
03aa	 0x6be407d7	 0x6be407d7
03ab	 0xfe14fcfc	 0xfe14fcfc
03ac	 0x818e0203	 0x818e0203
03ad	 0xf5c806eb	 0xf5c806eb
03ae	 0xfd9710fb	 0xfd9710fb
03af	 0xcd322a9a	 0xcd322a9a
03b0	 0x0581150b	 0x0581150b
03b1	 0x09641512	 0x09641512
03b2	 0xadf67c5b	 0xadf67c5b
03b3	 0x4e02939c	 0x4e02939c
03b4	 0x29a82553	 0x29a82553
03b5	 0x0952e512	 0x0952e512
03b6	 0x90163620	 0x90163620
03b7	 0xb676306c	 0xb676306c
03b8	 0x4afc0195	 0x4afc0195
03b9	 0xd72bd0ae	 0xd72bd0ae
03ba	 0x55d6e7ab	 0x55d6e7ab
03bb	 0x8c32be18	 0x8c32be18
03bc	 0x95c0322b	 0x95c0322b
03bd	 0xdf21f2be	 0xdf21f2be
03be	 0x5891fdb1	 0x5891fdb1
03bf	 0x524fbda4	 0x524fbda4
03c0	 0xb10f0862	 0xb10f0862
03c1	 0x93202826	 0x93202826
03c2	 0x9a85a435	 0x9a85a435
03c3	 0x28d26351	 0x28d26351
03c4	 0xc1258c82	 0xc1258c82
03c5	 0x1da5113b	 0x1da5113b
03c6	 0x2d00c95a	 0x2d00c95a
03c7	 0xd9e9b0b3	 0xd9e9b0b3
03c8	 0x0c6f8b18	 0x0c6f8b18
03c9	 0x285f0350	 0x285f0350
03ca	 0x274f154e	 0x274f154e
03cb	 0x90ea5e21	 0x90ea5e21
03cc	 0x4f53919e	 0x4f53919e
03cd	 0x52881da5	 0x52881da5
03ce	 0x1a64f534	 0x1a64f534
03cf	 0x370aeb6e	 0x370aeb6e
03d0	 0x8abee815	 0x8abee815
03d1	 0xb3023866	 0xb3023866
03d2	 0xad4b965a	 0xad4b965a
03d3	 0x31df9163	 0x31df9163
03d4	 0xd9719eb2	 0xd9719eb2
03d5	 0x8232f604	 0x8232f604
03d6	 0xce4ce69c	 0xce4ce69c
03d7	 0xff964cff	 0xff964cff
03d8	 0x980a8030	 0x980a8030
03d9	 0xc79fb08f	 0xc79fb08f
03da	 0xa4df8c49	 0xa4df8c49
03db	 0xecf2dad9	 0xecf2dad9
03dc	 0xebd318d7	 0xebd318d7
03dd	 0xa749804e	 0xa749804e
03de	 0x3052fb60	 0x3052fb60
03df	 0xe10ab4c2	 0xe10ab4c2
03e0	 0x744bb5e8	 0x744bb5e8
03e1	 0xaac94455	 0xaac94455
03e2	 0x3f3b577e	 0x3f3b577e
03e3	 0xfac11af5	 0xfac11af5
03e4	 0xb3775c66	 0xb3775c66
03e5	 0x222b9944	 0x222b9944
03e6	 0x2b9d9157	 0x2b9d9157
03e7	 0x7c0305f8	 0x7c0305f8
03e8	 0x78e7e3f1	 0x78e7e3f1
03e9	 0x788cdbf1	 0x788cdbf1
03ea	 0x87db520f	 0x87db520f
03eb	 0x3ec3317d	 0x3ec3317d
03ec	 0x5b89cdb7	 0x5b89cdb7
03ed	 0x18752130	 0x18752130
03ee	 0xa85f0a50	 0xa85f0a50
03ef	 0xafb61c5f	 0xafb61c5f
03f0	 0x0e306b1c	 0x0e306b1c
03f1	 0x3bf44d77	 0x3bf44d77
03f2	 0xb607e26c	 0xb607e26c
03f3	 0x0ace0115	 0x0ace0115
03f4	 0x1ae1c935	 0x1ae1c935
03f5	 0xc47df888	 0xc47df888
03f6	 0xb555c66a	 0xb555c66a
03f7	 0x5576d9aa	 0x5576d9aa
03f8	 0x50e2b1a1	 0x50e2b1a1
03f9	 0xf68580ed	 0xf68580ed
03fa	 0xae55645c	 0xae55645c
03fb	 0x529265a5	 0x529265a5
03fc	 0xf182aee3	 0xf182aee3
03fd	 0xb4d9fe69	 0xb4d9fe69
03fe	 0xe14c26c2	 0xe14c26c2
03ff	 0x6c341fd8	 0x6c341fd8
INITIALIZATION SUCCESS: Both memories initialized with identical values

The Generator has created the Transaction: (1) as below successfully:
+-------------------------+
+ Generator +
+-------------------------+
 Time: 0.000 ns

   Name               Value
   +-------------------------+
   PRESETn:           1 
   PADDR:             0x000003fb
   PWRITE:            0 : READ TNX
   PWDATA:            0x00000000
   PSTRB:             0000
   b2b_tnxs:          YES
   # of idle cycles:  0
+-------------------------+

The Generator has created the Transaction: (2) as below successfully:
+-------------------------+
+ Generator +
+-------------------------+
 Time: 0.000 ns

   Name               Value
   +-------------------------+
   PRESETn:           1 
   PADDR:             0x0000000e
   PWRITE:            1 : WRITE TNX
   PWDATA:            0xaa9ee97c
   PSTRB:             1000
   b2b_tnxs:          YES
   # of idle cycles:  0
+-------------------------+

The Generator has created the Transaction: (3) as below successfully:
+-------------------------+
+ Generator +
+-------------------------+
 Time: 0.000 ns

   Name               Value
   +-------------------------+
   PRESETn:           1 
   PADDR:             0x000003f1
   PWRITE:            1 : WRITE TNX
   PWDATA:            0x8c780125
   PSTRB:             0100
   b2b_tnxs:          YES
   # of idle cycles:  0
+-------------------------+

The Generator has created the Transaction: (4) as below successfully:
+-------------------------+
+ Generator +
+-------------------------+
 Time: 0.000 ns

   Name               Value
   +-------------------------+
   PRESETn:           1 
   PADDR:             0x0000000a
   PWRITE:            0 : READ TNX
   PWDATA:            0x00000000
   PSTRB:             0000
   b2b_tnxs:          YES
   # of idle cycles:  0
+-------------------------+

The Generator has created the Transaction: (5) as below successfully:
+-------------------------+
+ Generator +
+-------------------------+
 Time: 0.000 ns

   Name               Value
   +-------------------------+
   PRESETn:           1 
   PADDR:             0x0000000f
   PWRITE:            1 : WRITE TNX
   PWDATA:            0xa7c52eb5
   PSTRB:             0001
   b2b_tnxs:          YES
   # of idle cycles:  0
+-------------------------+

The Generator has created the Transaction: (6) as below successfully:
+-------------------------+
+ Generator +
+-------------------------+
 Time: 0.000 ns

   Name               Value
   +-------------------------+
   PRESETn:           1 
   PADDR:             0x000003fa
   PWRITE:            1 : WRITE TNX
   PWDATA:            0xaeb17723
   PSTRB:             1000
   b2b_tnxs:          NO
   # of idle cycles:  1
+-------------------------+

The Generator has created the Transaction: (7) as below successfully:
+-------------------------+
+ Generator +
+-------------------------+
 Time: 0.000 ns

   Name               Value
   +-------------------------+
   PRESETn:           1 
   PADDR:             0x00000004
   PWRITE:            1 : WRITE TNX
   PWDATA:            0xbd480fc7
   PSTRB:             1011
   b2b_tnxs:          YES
   # of idle cycles:  0
+-------------------------+

The Generator has created the Transaction: (8) as below successfully:
+-------------------------+
+ Generator +
+-------------------------+
 Time: 0.000 ns

   Name               Value
   +-------------------------+
   PRESETn:           1 
   PADDR:             0x000003f4
   PWRITE:            1 : WRITE TNX
   PWDATA:            0x36734e8e
   PSTRB:             1011
   b2b_tnxs:          YES
   # of idle cycles:  0
+-------------------------+

The Generator has created the Transaction: (9) as below successfully:
+-------------------------+
+ Generator +
+-------------------------+
 Time: 0.000 ns

   Name               Value
   +-------------------------+
   PRESETn:           1 
   PADDR:             0x000003f2
   PWRITE:            1 : WRITE TNX
   PWDATA:            0xe4396b6c
   PSTRB:             1010
   b2b_tnxs:          NO
   # of idle cycles:  3
+-------------------------+

The Generator has created the Transaction: (10) as below successfully:
+-------------------------+
+ Generator +
+-------------------------+
 Time: 0.000 ns

   Name               Value
   +-------------------------+
   PRESETn:           1 
   PADDR:             0x000003f0
   PWRITE:            0 : READ TNX
   PWDATA:            0x00000000
   PSTRB:             0000
   b2b_tnxs:          YES
   # of idle cycles:  0
+-------------------------+

The Generator has created the Transaction: (11) as below successfully:
+-------------------------+
+ Generator +
+-------------------------+
 Time: 0.000 ns

   Name               Value
   +-------------------------+
   PRESETn:           1 
   PADDR:             0x000003fa
   PWRITE:            0 : READ TNX
   PWDATA:            0x00000000
   PSTRB:             0000
   b2b_tnxs:          YES
   # of idle cycles:  0
+-------------------------+

The Generator has created the Transaction: (12) as below successfully:
+-------------------------+
+ Generator +
+-------------------------+
 Time: 0.000 ns

   Name               Value
   +-------------------------+
   PRESETn:           1 
   PADDR:             0x000003f4
   PWRITE:            1 : WRITE TNX
   PWDATA:            0xc5736634
   PSTRB:             0101
   b2b_tnxs:          YES
   # of idle cycles:  0
+-------------------------+

The Generator has created the Transaction: (13) as below successfully:
+-------------------------+
+ Generator +
+-------------------------+
 Time: 0.000 ns

   Name               Value
   +-------------------------+
   PRESETn:           1 
   PADDR:             0x00000008
   PWRITE:            1 : WRITE TNX
   PWDATA:            0x160af72c
   PSTRB:             1110
   b2b_tnxs:          YES
   # of idle cycles:  0
+-------------------------+

The Generator has created the Transaction: (14) as below successfully:
+-------------------------+
+ Generator +
+-------------------------+
 Time: 0.000 ns

   Name               Value
   +-------------------------+
   PRESETn:           1 
   PADDR:             0x00000007
   PWRITE:            1 : WRITE TNX
   PWDATA:            0x1781dd82
   PSTRB:             1001
   b2b_tnxs:          YES
   # of idle cycles:  0
+-------------------------+

The Generator has created the Transaction: (15) as below successfully:
+-------------------------+
+ Generator +
+-------------------------+
 Time: 0.000 ns

   Name               Value
   +-------------------------+
   PRESETn:           1 
   PADDR:             0x00000003
   PWRITE:            0 : READ TNX
   PWDATA:            0x00000000
   PSTRB:             0000
   b2b_tnxs:          YES
   # of idle cycles:  0
+-------------------------+

The Generator has created the Transaction: (16) as below successfully:
+-------------------------+
+ Generator +
+-------------------------+
 Time: 0.000 ns

   Name               Value
   +-------------------------+
   PRESETn:           1 
   PADDR:             0x00000000
   PWRITE:            0 : READ TNX
   PWDATA:            0x00000000
   PSTRB:             0000
   b2b_tnxs:          YES
   # of idle cycles:  0
+-------------------------+

The Generator has created the Transaction: (17) as below successfully:
+-------------------------+
+ Generator +
+-------------------------+
 Time: 0.000 ns

   Name               Value
   +-------------------------+
   PRESETn:           1 
   PADDR:             0x00000009
   PWRITE:            0 : READ TNX
   PWDATA:            0x00000000
   PSTRB:             0000
   b2b_tnxs:          YES
   # of idle cycles:  0
+-------------------------+

The Generator has created the Transaction: (18) as below successfully:
+-------------------------+
+ Generator +
+-------------------------+
 Time: 0.000 ns

   Name               Value
   +-------------------------+
   PRESETn:           1 
   PADDR:             0x000003fc
   PWRITE:            0 : READ TNX
   PWDATA:            0x00000000
   PSTRB:             0000
   b2b_tnxs:          YES
   # of idle cycles:  0
+-------------------------+

The Generator has created the Transaction: (19) as below successfully:
+-------------------------+
+ Generator +
+-------------------------+
 Time: 0.000 ns

   Name               Value
   +-------------------------+
   PRESETn:           1 
   PADDR:             0x000003f0
   PWRITE:            0 : READ TNX
   PWDATA:            0x00000000
   PSTRB:             0000
   b2b_tnxs:          YES
   # of idle cycles:  0
+-------------------------+

The Generator has created the Transaction: (20) as below successfully:
+-------------------------+
+ Generator +
+-------------------------+
 Time: 0.000 ns

   Name               Value
   +-------------------------+
   PRESETn:           1 
   PADDR:             0x000003fb
   PWRITE:            0 : READ TNX
   PWDATA:            0x00000000
   PSTRB:             0000
   b2b_tnxs:          YES
   # of idle cycles:  0
+-------------------------+

The Generator has created the Transaction: (21) as below successfully:
+-------------------------+
+ Generator +
+-------------------------+
 Time: 0.000 ns

   Name               Value
   +-------------------------+
   PRESETn:           1 
   PADDR:             0x000003f9
   PWRITE:            1 : WRITE TNX
   PWDATA:            0xae7b6c21
   PSTRB:             0010
   b2b_tnxs:          YES
   # of idle cycles:  0
+-------------------------+

The Generator has created the Transaction: (22) as below successfully:
+-------------------------+
+ Generator +
+-------------------------+
 Time: 0.000 ns

   Name               Value
   +-------------------------+
   PRESETn:           1 
   PADDR:             0x0000000a
   PWRITE:            1 : WRITE TNX
   PWDATA:            0xf20ee886
   PSTRB:             1001
   b2b_tnxs:          YES
   # of idle cycles:  0
+-------------------------+

The Generator has created the Transaction: (23) as below successfully:
+-------------------------+
+ Generator +
+-------------------------+
 Time: 0.000 ns

   Name               Value
   +-------------------------+
   PRESETn:           1 
   PADDR:             0x00000001
   PWRITE:            1 : WRITE TNX
   PWDATA:            0xd81784e2
   PSTRB:             1011
   b2b_tnxs:          NO
   # of idle cycles:  0
+-------------------------+

The Generator has created the Transaction: (24) as below successfully:
+-------------------------+
+ Generator +
+-------------------------+
 Time: 0.000 ns

   Name               Value
   +-------------------------+
   PRESETn:           1 
   PADDR:             0x000003fd
   PWRITE:            0 : READ TNX
   PWDATA:            0x00000000
   PSTRB:             0000
   b2b_tnxs:          YES
   # of idle cycles:  0
+-------------------------+

The Generator has created the Transaction: (25) as below successfully:
+-------------------------+
+ Generator +
+-------------------------+
 Time: 0.000 ns

   Name               Value
   +-------------------------+
   PRESETn:           1 
   PADDR:             0x00000004
   PWRITE:            0 : READ TNX
   PWDATA:            0x00000000
   PSTRB:             0000
   b2b_tnxs:          NO
   # of idle cycles:  2
+-------------------------+

The Generator has created the Transaction: (26) as below successfully:
+-------------------------+
+ Generator +
+-------------------------+
 Time: 0.000 ns

   Name               Value
   +-------------------------+
   PRESETn:           1 
   PADDR:             0x00000009
   PWRITE:            1 : WRITE TNX
   PWDATA:            0xc6d7ca28
   PSTRB:             1011
   b2b_tnxs:          YES
   # of idle cycles:  0
+-------------------------+

The Generator has created the Transaction: (27) as below successfully:
+-------------------------+
+ Generator +
+-------------------------+
 Time: 0.000 ns

   Name               Value
   +-------------------------+
   PRESETn:           1 
   PADDR:             0x000003f5
   PWRITE:            1 : WRITE TNX
   PWDATA:            0xdf188de5
   PSTRB:             0110
   b2b_tnxs:          NO
   # of idle cycles:  3
+-------------------------+

The Generator has created the Transaction: (28) as below successfully:
+-------------------------+
+ Generator +
+-------------------------+
 Time: 0.000 ns

   Name               Value
   +-------------------------+
   PRESETn:           1 
   PADDR:             0x00000005
   PWRITE:            1 : WRITE TNX
   PWDATA:            0x2a2451d5
   PSTRB:             1111
   b2b_tnxs:          YES
   # of idle cycles:  0
+-------------------------+

The Generator has created the Transaction: (29) as below successfully:
+-------------------------+
+ Generator +
+-------------------------+
 Time: 0.000 ns

   Name               Value
   +-------------------------+
   PRESETn:           1 
   PADDR:             0x000003f1
   PWRITE:            0 : READ TNX
   PWDATA:            0x00000000
   PSTRB:             0000
   b2b_tnxs:          YES
   # of idle cycles:  0
+-------------------------+

The Generator has created the Transaction: (30) as below successfully:
+-------------------------+
+ Generator +
+-------------------------+
 Time: 0.000 ns

   Name               Value
   +-------------------------+
   PRESETn:           1 
   PADDR:             0x000003f5
   PWRITE:            1 : WRITE TNX
   PWDATA:            0xd56dd98b
   PSTRB:             0011
   b2b_tnxs:          YES
   # of idle cycles:  0
+-------------------------+

The Generator has created the Transaction: (31) as below successfully:
+-------------------------+
+ Generator +
+-------------------------+
 Time: 0.000 ns

   Name               Value
   +-------------------------+
   PRESETn:           1 
   PADDR:             0x00000007
   PWRITE:            0 : READ TNX
   PWDATA:            0x00000000
   PSTRB:             0000
   b2b_tnxs:          YES
   # of idle cycles:  0
+-------------------------+

The Generator has created the Transaction: (32) as below successfully:
+-------------------------+
+ Generator +
+-------------------------+
 Time: 0.000 ns

   Name               Value
   +-------------------------+
   PRESETn:           1 
   PADDR:             0x000003f3
   PWRITE:            0 : READ TNX
   PWDATA:            0x00000000
   PSTRB:             0000
   b2b_tnxs:          YES
   # of idle cycles:  0
+-------------------------+

The Generator has created the Transaction: (33) as below successfully:
+-------------------------+
+ Generator +
+-------------------------+
 Time: 0.000 ns

   Name               Value
   +-------------------------+
   PRESETn:           1 
   PADDR:             0x000003f5
   PWRITE:            1 : WRITE TNX
   PWDATA:            0xe035d7be
   PSTRB:             0101
   b2b_tnxs:          NO
   # of idle cycles:  1
+-------------------------+

The Generator has created the Transaction: (34) as below successfully:
+-------------------------+
+ Generator +
+-------------------------+
 Time: 0.000 ns

   Name               Value
   +-------------------------+
   PRESETn:           1 
   PADDR:             0x0000000c
   PWRITE:            1 : WRITE TNX
   PWDATA:            0xdacdea7f
   PSTRB:             1111
   b2b_tnxs:          YES
   # of idle cycles:  0
+-------------------------+

The Generator has created the Transaction: (35) as below successfully:
+-------------------------+
+ Generator +
+-------------------------+
 Time: 0.000 ns

   Name               Value
   +-------------------------+
   PRESETn:           1 
   PADDR:             0x000003f1
   PWRITE:            0 : READ TNX
   PWDATA:            0x00000000
   PSTRB:             0000
   b2b_tnxs:          YES
   # of idle cycles:  0
+-------------------------+

The Generator has created the Transaction: (36) as below successfully:
+-------------------------+
+ Generator +
+-------------------------+
 Time: 0.000 ns

   Name               Value
   +-------------------------+
   PRESETn:           1 
   PADDR:             0x0000000c
   PWRITE:            0 : READ TNX
   PWDATA:            0x00000000
   PSTRB:             0000
   b2b_tnxs:          YES
   # of idle cycles:  0
+-------------------------+

The Generator has created the Transaction: (37) as below successfully:
+-------------------------+
+ Generator +
+-------------------------+
 Time: 0.000 ns

   Name               Value
   +-------------------------+
   PRESETn:           1 
   PADDR:             0x000003fb
   PWRITE:            1 : WRITE TNX
   PWDATA:            0xc0b6230d
   PSTRB:             1010
   b2b_tnxs:          YES
   # of idle cycles:  0
+-------------------------+

The Generator has created the Transaction: (38) as below successfully:
+-------------------------+
+ Generator +
+-------------------------+
 Time: 0.000 ns

   Name               Value
   +-------------------------+
   PRESETn:           1 
   PADDR:             0x000003f7
   PWRITE:            0 : READ TNX
   PWDATA:            0x00000000
   PSTRB:             0000
   b2b_tnxs:          YES
   # of idle cycles:  0
+-------------------------+

The Generator has created the Transaction: (39) as below successfully:
+-------------------------+
+ Generator +
+-------------------------+
 Time: 0.000 ns

   Name               Value
   +-------------------------+
   PRESETn:           1 
   PADDR:             0x000003f8
   PWRITE:            0 : READ TNX
   PWDATA:            0x00000000
   PSTRB:             0000
   b2b_tnxs:          YES
   # of idle cycles:  0
+-------------------------+

The Generator has created the Transaction: (40) as below successfully:
+-------------------------+
+ Generator +
+-------------------------+
 Time: 0.000 ns

   Name               Value
   +-------------------------+
   PRESETn:           1 
   PADDR:             0x0000000e
   PWRITE:            0 : READ TNX
   PWDATA:            0x00000000
   PSTRB:             0000
   b2b_tnxs:          YES
   # of idle cycles:  0
+-------------------------+

The Generator has created the Transaction: (41) as below successfully:
+-------------------------+
+ Generator +
+-------------------------+
 Time: 0.000 ns

   Name               Value
   +-------------------------+
   PRESETn:           1 
   PADDR:             0x000003f0
   PWRITE:            1 : WRITE TNX
   PWDATA:            0xc8d45bdb
   PSTRB:             1010
   b2b_tnxs:          YES
   # of idle cycles:  0
+-------------------------+

The Generator has created the Transaction: (42) as below successfully:
+-------------------------+
+ Generator +
+-------------------------+
 Time: 0.000 ns

   Name               Value
   +-------------------------+
   PRESETn:           1 
   PADDR:             0x000003ff
   PWRITE:            1 : WRITE TNX
   PWDATA:            0xef954f45
   PSTRB:             1011
   b2b_tnxs:          YES
   # of idle cycles:  0
+-------------------------+

The Generator has created the Transaction: (43) as below successfully:
+-------------------------+
+ Generator +
+-------------------------+
 Time: 0.000 ns

   Name               Value
   +-------------------------+
   PRESETn:           1 
   PADDR:             0x00000001
   PWRITE:            0 : READ TNX
   PWDATA:            0x00000000
   PSTRB:             0000
   b2b_tnxs:          YES
   # of idle cycles:  0
+-------------------------+

The Generator has created the Transaction: (44) as below successfully:
+-------------------------+
+ Generator +
+-------------------------+
 Time: 0.000 ns

   Name               Value
   +-------------------------+
   PRESETn:           1 
   PADDR:             0x000003ff
   PWRITE:            1 : WRITE TNX
   PWDATA:            0xc549a645
   PSTRB:             0101
   b2b_tnxs:          YES
   # of idle cycles:  0
+-------------------------+

The Generator has created the Transaction: (45) as below successfully:
+-------------------------+
+ Generator +
+-------------------------+
 Time: 0.000 ns

   Name               Value
   +-------------------------+
   PRESETn:           1 
   PADDR:             0x000003fb
   PWRITE:            0 : READ TNX
   PWDATA:            0x00000000
   PSTRB:             0000
   b2b_tnxs:          YES
   # of idle cycles:  0
+-------------------------+

The Generator has created the Transaction: (46) as below successfully:
+-------------------------+
+ Generator +
+-------------------------+
 Time: 0.000 ns

   Name               Value
   +-------------------------+
   PRESETn:           0 
   PADDR:             0x00000004
   PWRITE:            1 : WRITE TNX
   PWDATA:            0x98d57d12
   PSTRB:             1001
   b2b_tnxs:          NO
   # of idle cycles:  2
+-------------------------+

The Generator has created the Transaction: (47) as below successfully:
+-------------------------+
+ Generator +
+-------------------------+
 Time: 0.000 ns

   Name               Value
   +-------------------------+
   PRESETn:           1 
   PADDR:             0x0000000c
   PWRITE:            0 : READ TNX
   PWDATA:            0x00000000
   PSTRB:             0000
   b2b_tnxs:          YES
   # of idle cycles:  0
+-------------------------+

The Generator has created the Transaction: (48) as below successfully:
+-------------------------+
+ Generator +
+-------------------------+
 Time: 0.000 ns

   Name               Value
   +-------------------------+
   PRESETn:           1 
   PADDR:             0x000003f0
   PWRITE:            1 : WRITE TNX
   PWDATA:            0xd7f44958
   PSTRB:             0111
   b2b_tnxs:          NO
   # of idle cycles:  5
+-------------------------+

The Generator has created the Transaction: (49) as below successfully:
+-------------------------+
+ Generator +
+-------------------------+
 Time: 0.000 ns

   Name               Value
   +-------------------------+
   PRESETn:           1 
   PADDR:             0x000003f7
   PWRITE:            0 : READ TNX
   PWDATA:            0x00000000
   PSTRB:             0000
   b2b_tnxs:          YES
   # of idle cycles:  0
+-------------------------+

The Generator has created the Transaction: (50) as below successfully:
+-------------------------+
+ Generator +
+-------------------------+
 Time: 0.000 ns

   Name               Value
   +-------------------------+
   PRESETn:           1 
   PADDR:             0x0000000e
   PWRITE:            1 : WRITE TNX
   PWDATA:            0x952b8fe6
   PSTRB:             1111
   b2b_tnxs:          YES
   # of idle cycles:  0
+-------------------------+

The Generator has created the Transaction: (51) as below successfully:
+-------------------------+
+ Generator +
+-------------------------+
 Time: 0.000 ns

   Name               Value
   +-------------------------+
   PRESETn:           1 
   PADDR:             0x00000003
   PWRITE:            1 : WRITE TNX
   PWDATA:            0x86dbb4b8
   PSTRB:             0100
   b2b_tnxs:          YES
   # of idle cycles:  0
+-------------------------+

The Generator has created the Transaction: (52) as below successfully:
+-------------------------+
+ Generator +
+-------------------------+
 Time: 0.000 ns

   Name               Value
   +-------------------------+
   PRESETn:           1 
   PADDR:             0x000003fa
   PWRITE:            1 : WRITE TNX
   PWDATA:            0xf65c0da3
   PSTRB:             1001
   b2b_tnxs:          NO
   # of idle cycles:  1
+-------------------------+

The Generator has created the Transaction: (53) as below successfully:
+-------------------------+
+ Generator +
+-------------------------+
 Time: 0.000 ns

   Name               Value
   +-------------------------+
   PRESETn:           1 
   PADDR:             0x000003fb
   PWRITE:            1 : WRITE TNX
   PWDATA:            0xd7d49737
   PSTRB:             0011
   b2b_tnxs:          YES
   # of idle cycles:  0
+-------------------------+

The Generator has created the Transaction: (54) as below successfully:
+-------------------------+
+ Generator +
+-------------------------+
 Time: 0.000 ns

   Name               Value
   +-------------------------+
   PRESETn:           1 
   PADDR:             0x000003fd
   PWRITE:            1 : WRITE TNX
   PWDATA:            0x814f46d1
   PSTRB:             1011
   b2b_tnxs:          YES
   # of idle cycles:  0
+-------------------------+

The Generator has created the Transaction: (55) as below successfully:
+-------------------------+
+ Generator +
+-------------------------+
 Time: 0.000 ns

   Name               Value
   +-------------------------+
   PRESETn:           1 
   PADDR:             0x000003f5
   PWRITE:            1 : WRITE TNX
   PWDATA:            0x2ed6383c
   PSTRB:             1011
   b2b_tnxs:          YES
   # of idle cycles:  0
+-------------------------+

The Generator has created the Transaction: (56) as below successfully:
+-------------------------+
+ Generator +
+-------------------------+
 Time: 0.000 ns

   Name               Value
   +-------------------------+
   PRESETn:           1 
   PADDR:             0x00000004
   PWRITE:            1 : WRITE TNX
   PWDATA:            0x273ba31e
   PSTRB:             0011
   b2b_tnxs:          YES
   # of idle cycles:  0
+-------------------------+

The Generator has created the Transaction: (57) as below successfully:
+-------------------------+
+ Generator +
+-------------------------+
 Time: 0.000 ns

   Name               Value
   +-------------------------+
   PRESETn:           1 
   PADDR:             0x00000006
   PWRITE:            0 : READ TNX
   PWDATA:            0x00000000
   PSTRB:             0000
   b2b_tnxs:          YES
   # of idle cycles:  0
+-------------------------+

The Generator has created the Transaction: (58) as below successfully:
+-------------------------+
+ Generator +
+-------------------------+
 Time: 0.000 ns

   Name               Value
   +-------------------------+
   PRESETn:           1 
   PADDR:             0x0000000d
   PWRITE:            0 : READ TNX
   PWDATA:            0x00000000
   PSTRB:             0000
   b2b_tnxs:          NO
   # of idle cycles:  3
+-------------------------+

The Generator has created the Transaction: (59) as below successfully:
+-------------------------+
+ Generator +
+-------------------------+
 Time: 0.000 ns

   Name               Value
   +-------------------------+
   PRESETn:           1 
   PADDR:             0x00000006
   PWRITE:            1 : WRITE TNX
   PWDATA:            0xbb98175b
   PSTRB:             1010
   b2b_tnxs:          NO
   # of idle cycles:  5
+-------------------------+

The Generator has created the Transaction: (60) as below successfully:
+-------------------------+
+ Generator +
+-------------------------+
 Time: 0.000 ns

   Name               Value
   +-------------------------+
   PRESETn:           1 
   PADDR:             0x000003f6
   PWRITE:            0 : READ TNX
   PWDATA:            0x00000000
   PSTRB:             0000
   b2b_tnxs:          YES
   # of idle cycles:  0
+-------------------------+

The Generator has created the Transaction: (61) as below successfully:
+-------------------------+
+ Generator +
+-------------------------+
 Time: 0.000 ns

   Name               Value
   +-------------------------+
   PRESETn:           1 
   PADDR:             0x000003fe
   PWRITE:            1 : WRITE TNX
   PWDATA:            0xfad125bc
   PSTRB:             1001
   b2b_tnxs:          YES
   # of idle cycles:  0
+-------------------------+

The Generator has created the Transaction: (62) as below successfully:
+-------------------------+
+ Generator +
+-------------------------+
 Time: 0.000 ns

   Name               Value
   +-------------------------+
   PRESETn:           1 
   PADDR:             0x000003f5
   PWRITE:            1 : WRITE TNX
   PWDATA:            0x14b36ea1
   PSTRB:             1000
   b2b_tnxs:          YES
   # of idle cycles:  0
+-------------------------+

The Generator has created the Transaction: (63) as below successfully:
+-------------------------+
+ Generator +
+-------------------------+
 Time: 0.000 ns

   Name               Value
   +-------------------------+
   PRESETn:           1 
   PADDR:             0x0000000a
   PWRITE:            0 : READ TNX
   PWDATA:            0x00000000
   PSTRB:             0000
   b2b_tnxs:          YES
   # of idle cycles:  0
+-------------------------+

The Generator has created the Transaction: (64) as below successfully:
+-------------------------+
+ Generator +
+-------------------------+
 Time: 0.000 ns

   Name               Value
   +-------------------------+
   PRESETn:           1 
   PADDR:             0x0000000d
   PWRITE:            1 : WRITE TNX
   PWDATA:            0xd29124ce
   PSTRB:             0110
   b2b_tnxs:          NO
   # of idle cycles:  5
+-------------------------+

The Generator has created the Transaction: (65) as below successfully:
+-------------------------+
+ Generator +
+-------------------------+
 Time: 0.000 ns

   Name               Value
   +-------------------------+
   PRESETn:           1 
   PADDR:             0x000003f4
   PWRITE:            0 : READ TNX
   PWDATA:            0x00000000
   PSTRB:             0000
   b2b_tnxs:          YES
   # of idle cycles:  0
+-------------------------+

The Generator has created the Transaction: (66) as below successfully:
+-------------------------+
+ Generator +
+-------------------------+
 Time: 0.000 ns

   Name               Value
   +-------------------------+
   PRESETn:           1 
   PADDR:             0x000003f3
   PWRITE:            1 : WRITE TNX
   PWDATA:            0xbf3820a9
   PSTRB:             1111
   b2b_tnxs:          YES
   # of idle cycles:  0
+-------------------------+

The Generator has created the Transaction: (67) as below successfully:
+-------------------------+
+ Generator +
+-------------------------+
 Time: 0.000 ns

   Name               Value
   +-------------------------+
   PRESETn:           1 
   PADDR:             0x000003fc
   PWRITE:            0 : READ TNX
   PWDATA:            0x00000000
   PSTRB:             0000
   b2b_tnxs:          YES
   # of idle cycles:  0
+-------------------------+

The Generator has created the Transaction: (68) as below successfully:
+-------------------------+
+ Generator +
+-------------------------+
 Time: 0.000 ns

   Name               Value
   +-------------------------+
   PRESETn:           1 
   PADDR:             0x000003fb
   PWRITE:            0 : READ TNX
   PWDATA:            0x00000000
   PSTRB:             0000
   b2b_tnxs:          YES
   # of idle cycles:  0
+-------------------------+

The Generator has created the Transaction: (69) as below successfully:
+-------------------------+
+ Generator +
+-------------------------+
 Time: 0.000 ns

   Name               Value
   +-------------------------+
   PRESETn:           1 
   PADDR:             0x000003fc
   PWRITE:            0 : READ TNX
   PWDATA:            0x00000000
   PSTRB:             0000
   b2b_tnxs:          YES
   # of idle cycles:  0
+-------------------------+

The Generator has created the Transaction: (70) as below successfully:
+-------------------------+
+ Generator +
+-------------------------+
 Time: 0.000 ns

   Name               Value
   +-------------------------+
   PRESETn:           1 
   PADDR:             0x00000002
   PWRITE:            1 : WRITE TNX
   PWDATA:            0xdf3ffaa5
   PSTRB:             1000
   b2b_tnxs:          YES
   # of idle cycles:  0
+-------------------------+

The Generator has created the Transaction: (71) as below successfully:
+-------------------------+
+ Generator +
+-------------------------+
 Time: 0.000 ns

   Name               Value
   +-------------------------+
   PRESETn:           1 
   PADDR:             0x000003f5
   PWRITE:            1 : WRITE TNX
   PWDATA:            0xe831651a
   PSTRB:             0101
   b2b_tnxs:          YES
   # of idle cycles:  0
+-------------------------+

The Generator has created the Transaction: (72) as below successfully:
+-------------------------+
+ Generator +
+-------------------------+
 Time: 0.000 ns

   Name               Value
   +-------------------------+
   PRESETn:           1 
   PADDR:             0x000003f3
   PWRITE:            0 : READ TNX
   PWDATA:            0x00000000
   PSTRB:             0000
   b2b_tnxs:          YES
   # of idle cycles:  0
+-------------------------+

The Generator has created the Transaction: (73) as below successfully:
+-------------------------+
+ Generator +
+-------------------------+
 Time: 0.000 ns

   Name               Value
   +-------------------------+
   PRESETn:           1 
   PADDR:             0x000003f4
   PWRITE:            1 : WRITE TNX
   PWDATA:            0xb417fc3f
   PSTRB:             1110
   b2b_tnxs:          YES
   # of idle cycles:  0
+-------------------------+

The Generator has created the Transaction: (74) as below successfully:
+-------------------------+
+ Generator +
+-------------------------+
 Time: 0.000 ns

   Name               Value
   +-------------------------+
   PRESETn:           1 
   PADDR:             0x0000000b
   PWRITE:            1 : WRITE TNX
   PWDATA:            0x33d2b981
   PSTRB:             0100
   b2b_tnxs:          NO
   # of idle cycles:  4
+-------------------------+

The Generator has created the Transaction: (75) as below successfully:
+-------------------------+
+ Generator +
+-------------------------+
 Time: 0.000 ns

   Name               Value
   +-------------------------+
   PRESETn:           1 
   PADDR:             0x0000000a
   PWRITE:            0 : READ TNX
   PWDATA:            0x00000000
   PSTRB:             0000
   b2b_tnxs:          YES
   # of idle cycles:  0
+-------------------------+

The Generator has created the Transaction: (76) as below successfully:
+-------------------------+
+ Generator +
+-------------------------+
 Time: 0.000 ns

   Name               Value
   +-------------------------+
   PRESETn:           1 
   PADDR:             0x0000000c
   PWRITE:            1 : WRITE TNX
   PWDATA:            0x955ec38a
   PSTRB:             1101
   b2b_tnxs:          YES
   # of idle cycles:  0
+-------------------------+

The Generator has created the Transaction: (77) as below successfully:
+-------------------------+
+ Generator +
+-------------------------+
 Time: 0.000 ns

   Name               Value
   +-------------------------+
   PRESETn:           1 
   PADDR:             0x00000001
   PWRITE:            1 : WRITE TNX
   PWDATA:            0x0116145a
   PSTRB:             0010
   b2b_tnxs:          YES
   # of idle cycles:  0
+-------------------------+

The Generator has created the Transaction: (78) as below successfully:
+-------------------------+
+ Generator +
+-------------------------+
 Time: 0.000 ns

   Name               Value
   +-------------------------+
   PRESETn:           1 
   PADDR:             0x000003f3
   PWRITE:            0 : READ TNX
   PWDATA:            0x00000000
   PSTRB:             0000
   b2b_tnxs:          YES
   # of idle cycles:  0
+-------------------------+

The Generator has created the Transaction: (79) as below successfully:
+-------------------------+
+ Generator +
+-------------------------+
 Time: 0.000 ns

   Name               Value
   +-------------------------+
   PRESETn:           1 
   PADDR:             0x00000004
   PWRITE:            0 : READ TNX
   PWDATA:            0x00000000
   PSTRB:             0000
   b2b_tnxs:          NO
   # of idle cycles:  3
+-------------------------+

The Generator has created the Transaction: (80) as below successfully:
+-------------------------+
+ Generator +
+-------------------------+
 Time: 0.000 ns

   Name               Value
   +-------------------------+
   PRESETn:           1 
   PADDR:             0x000003ff
   PWRITE:            0 : READ TNX
   PWDATA:            0x00000000
   PSTRB:             0000
   b2b_tnxs:          YES
   # of idle cycles:  0
+-------------------------+

The Generator has created the Transaction: (81) as below successfully:
+-------------------------+
+ Generator +
+-------------------------+
 Time: 0.000 ns

   Name               Value
   +-------------------------+
   PRESETn:           1 
   PADDR:             0x00000004
   PWRITE:            0 : READ TNX
   PWDATA:            0x00000000
   PSTRB:             0000
   b2b_tnxs:          YES
   # of idle cycles:  0
+-------------------------+

The Generator has created the Transaction: (82) as below successfully:
+-------------------------+
+ Generator +
+-------------------------+
 Time: 0.000 ns

   Name               Value
   +-------------------------+
   PRESETn:           1 
   PADDR:             0x000003f0
   PWRITE:            1 : WRITE TNX
   PWDATA:            0xf5723db3
   PSTRB:             1011
   b2b_tnxs:          YES
   # of idle cycles:  0
+-------------------------+

The Generator has created the Transaction: (83) as below successfully:
+-------------------------+
+ Generator +
+-------------------------+
 Time: 0.000 ns

   Name               Value
   +-------------------------+
   PRESETn:           1 
   PADDR:             0x00000003
   PWRITE:            1 : WRITE TNX
   PWDATA:            0x3e742645
   PSTRB:             1111
   b2b_tnxs:          YES
   # of idle cycles:  0
+-------------------------+

The Generator has created the Transaction: (84) as below successfully:
+-------------------------+
+ Generator +
+-------------------------+
 Time: 0.000 ns

   Name               Value
   +-------------------------+
   PRESETn:           1 
   PADDR:             0x00000001
   PWRITE:            0 : READ TNX
   PWDATA:            0x00000000
   PSTRB:             0000
   b2b_tnxs:          YES
   # of idle cycles:  0
+-------------------------+

The Generator has created the Transaction: (85) as below successfully:
+-------------------------+
+ Generator +
+-------------------------+
 Time: 0.000 ns

   Name               Value
   +-------------------------+
   PRESETn:           1 
   PADDR:             0x00000006
   PWRITE:            1 : WRITE TNX
   PWDATA:            0x0c7e4dfb
   PSTRB:             1000
   b2b_tnxs:          NO
   # of idle cycles:  0
+-------------------------+

The Generator has created the Transaction: (86) as below successfully:
+-------------------------+
+ Generator +
+-------------------------+
 Time: 0.000 ns

   Name               Value
   +-------------------------+
   PRESETn:           1 
   PADDR:             0x0000000a
   PWRITE:            0 : READ TNX
   PWDATA:            0x00000000
   PSTRB:             0000
   b2b_tnxs:          YES
   # of idle cycles:  0
+-------------------------+

The Generator has created the Transaction: (87) as below successfully:
+-------------------------+
+ Generator +
+-------------------------+
 Time: 0.000 ns

   Name               Value
   +-------------------------+
   PRESETn:           1 
   PADDR:             0x0000000a
   PWRITE:            1 : WRITE TNX
   PWDATA:            0x2223ba35
   PSTRB:             1000
   b2b_tnxs:          YES
   # of idle cycles:  0
+-------------------------+

The Generator has created the Transaction: (88) as below successfully:
+-------------------------+
+ Generator +
+-------------------------+
 Time: 0.000 ns

   Name               Value
   +-------------------------+
   PRESETn:           1 
   PADDR:             0x0000000b
   PWRITE:            1 : WRITE TNX
   PWDATA:            0x98e9e710
   PSTRB:             0001
   b2b_tnxs:          YES
   # of idle cycles:  0
+-------------------------+

The Generator has created the Transaction: (89) as below successfully:
+-------------------------+
+ Generator +
+-------------------------+
 Time: 0.000 ns

   Name               Value
   +-------------------------+
   PRESETn:           1 
   PADDR:             0x00000002
   PWRITE:            1 : WRITE TNX
   PWDATA:            0x08bc46e3
   PSTRB:             1010
   b2b_tnxs:          YES
   # of idle cycles:  0
+-------------------------+

The Generator has created the Transaction: (90) as below successfully:
+-------------------------+
+ Generator +
+-------------------------+
 Time: 0.000 ns

   Name               Value
   +-------------------------+
   PRESETn:           1 
   PADDR:             0x00000002
   PWRITE:            0 : READ TNX
   PWDATA:            0x00000000
   PSTRB:             0000
   b2b_tnxs:          YES
   # of idle cycles:  0
+-------------------------+

The Generator has created the Transaction: (91) as below successfully:
+-------------------------+
+ Generator +
+-------------------------+
 Time: 0.000 ns

   Name               Value
   +-------------------------+
   PRESETn:           1 
   PADDR:             0x0000000a
   PWRITE:            0 : READ TNX
   PWDATA:            0x00000000
   PSTRB:             0000
   b2b_tnxs:          NO
   # of idle cycles:  1
+-------------------------+

The Generator has created the Transaction: (92) as below successfully:
+-------------------------+
+ Generator +
+-------------------------+
 Time: 0.000 ns

   Name               Value
   +-------------------------+
   PRESETn:           1 
   PADDR:             0x0000000a
   PWRITE:            1 : WRITE TNX
   PWDATA:            0xe61989a5
   PSTRB:             1000
   b2b_tnxs:          YES
   # of idle cycles:  0
+-------------------------+

The Generator has created the Transaction: (93) as below successfully:
+-------------------------+
+ Generator +
+-------------------------+
 Time: 0.000 ns

   Name               Value
   +-------------------------+
   PRESETn:           1 
   PADDR:             0x00000001
   PWRITE:            1 : WRITE TNX
   PWDATA:            0x1e027abd
   PSTRB:             0101
   b2b_tnxs:          YES
   # of idle cycles:  0
+-------------------------+

The Generator has created the Transaction: (94) as below successfully:
+-------------------------+
+ Generator +
+-------------------------+
 Time: 0.000 ns

   Name               Value
   +-------------------------+
   PRESETn:           1 
   PADDR:             0x00000007
   PWRITE:            1 : WRITE TNX
   PWDATA:            0xf79723a6
   PSTRB:             1010
   b2b_tnxs:          YES
   # of idle cycles:  0
+-------------------------+

The Generator has created the Transaction: (95) as below successfully:
+-------------------------+
+ Generator +
+-------------------------+
 Time: 0.000 ns

   Name               Value
   +-------------------------+
   PRESETn:           1 
   PADDR:             0x00000009
   PWRITE:            0 : READ TNX
   PWDATA:            0x00000000
   PSTRB:             0000
   b2b_tnxs:          YES
   # of idle cycles:  0
+-------------------------+

The Generator has created the Transaction: (96) as below successfully:
+-------------------------+
+ Generator +
+-------------------------+
 Time: 0.000 ns

   Name               Value
   +-------------------------+
   PRESETn:           1 
   PADDR:             0x0000000d
   PWRITE:            0 : READ TNX
   PWDATA:            0x00000000
   PSTRB:             0000
   b2b_tnxs:          YES
   # of idle cycles:  0
+-------------------------+

The Generator has created the Transaction: (97) as below successfully:
+-------------------------+
+ Generator +
+-------------------------+
 Time: 0.000 ns

   Name               Value
   +-------------------------+
   PRESETn:           1 
   PADDR:             0x000003fd
   PWRITE:            1 : WRITE TNX
   PWDATA:            0x16a30804
   PSTRB:             0010
   b2b_tnxs:          NO
   # of idle cycles:  3
+-------------------------+

The Generator has created the Transaction: (98) as below successfully:
+-------------------------+
+ Generator +
+-------------------------+
 Time: 0.000 ns

   Name               Value
   +-------------------------+
   PRESETn:           1 
   PADDR:             0x000003f9
   PWRITE:            0 : READ TNX
   PWDATA:            0x00000000
   PSTRB:             0000
   b2b_tnxs:          YES
   # of idle cycles:  0
+-------------------------+

The Generator has created the Transaction: (99) as below successfully:
+-------------------------+
+ Generator +
+-------------------------+
 Time: 0.000 ns

   Name               Value
   +-------------------------+
   PRESETn:           1 
   PADDR:             0x000003fa
   PWRITE:            0 : READ TNX
   PWDATA:            0x00000000
   PSTRB:             0000
   b2b_tnxs:          YES
   # of idle cycles:  0
+-------------------------+

The Generator has created the Transaction: (100) as below successfully:
+-------------------------+
+ Generator +
+-------------------------+
 Time: 0.000 ns

   Name               Value
   +-------------------------+
   PRESETn:           1 
   PADDR:             0x000003fe
   PWRITE:            1 : WRITE TNX
   PWDATA:            0x0902863a
   PSTRB:             0001
   b2b_tnxs:          YES
   # of idle cycles:  0
+-------------------------+

The Generator has created the Transaction: (101) as below successfully:
+-------------------------+
+ Generator +
+-------------------------+
 Time: 0.000 ns

   Name               Value
   +-------------------------+
   PRESETn:           1 
   PADDR:             0x00000000
   PWRITE:            1 : WRITE TNX
   PWDATA:            0x37943e40
   PSTRB:             1101
   b2b_tnxs:          YES
   # of idle cycles:  0
+-------------------------+

The Generator has created the Transaction: (102) as below successfully:
+-------------------------+
+ Generator +
+-------------------------+
 Time: 0.000 ns

   Name               Value
   +-------------------------+
   PRESETn:           1 
   PADDR:             0x000003f8
   PWRITE:            1 : WRITE TNX
   PWDATA:            0xdd633464
   PSTRB:             0101
   b2b_tnxs:          NO
   # of idle cycles:  0
+-------------------------+

The Generator has created the Transaction: (103) as below successfully:
+-------------------------+
+ Generator +
+-------------------------+
 Time: 0.000 ns

   Name               Value
   +-------------------------+
   PRESETn:           1 
   PADDR:             0x00000001
   PWRITE:            1 : WRITE TNX
   PWDATA:            0xfc3ba164
   PSTRB:             1110
   b2b_tnxs:          YES
   # of idle cycles:  0
+-------------------------+

The Generator has created the Transaction: (104) as below successfully:
+-------------------------+
+ Generator +
+-------------------------+
 Time: 0.000 ns

   Name               Value
   +-------------------------+
   PRESETn:           1 
   PADDR:             0x000003f4
   PWRITE:            1 : WRITE TNX
   PWDATA:            0xec487f6a
   PSTRB:             0011
   b2b_tnxs:          NO
   # of idle cycles:  3
+-------------------------+

The Generator has created the Transaction: (105) as below successfully:
+-------------------------+
+ Generator +
+-------------------------+
 Time: 0.000 ns

   Name               Value
   +-------------------------+
   PRESETn:           1 
   PADDR:             0x000003f8
   PWRITE:            0 : READ TNX
   PWDATA:            0x00000000
   PSTRB:             0000
   b2b_tnxs:          NO
   # of idle cycles:  2
+-------------------------+

The Generator has created the Transaction: (106) as below successfully:
+-------------------------+
+ Generator +
+-------------------------+
 Time: 0.000 ns

   Name               Value
   +-------------------------+
   PRESETn:           1 
   PADDR:             0x000003f3
   PWRITE:            0 : READ TNX
   PWDATA:            0x00000000
   PSTRB:             0000
   b2b_tnxs:          YES
   # of idle cycles:  0
+-------------------------+

The Generator has created the Transaction: (107) as below successfully:
+-------------------------+
+ Generator +
+-------------------------+
 Time: 0.000 ns

   Name               Value
   +-------------------------+
   PRESETn:           1 
   PADDR:             0x00000006
   PWRITE:            0 : READ TNX
   PWDATA:            0x00000000
   PSTRB:             0000
   b2b_tnxs:          YES
   # of idle cycles:  0
+-------------------------+

The Generator has created the Transaction: (108) as below successfully:
+-------------------------+
+ Generator +
+-------------------------+
 Time: 0.000 ns

   Name               Value
   +-------------------------+
   PRESETn:           1 
   PADDR:             0x0000000c
   PWRITE:            1 : WRITE TNX
   PWDATA:            0x8025a9df
   PSTRB:             1001
   b2b_tnxs:          YES
   # of idle cycles:  0
+-------------------------+

The Generator has created the Transaction: (109) as below successfully:
+-------------------------+
+ Generator +
+-------------------------+
 Time: 0.000 ns

   Name               Value
   +-------------------------+
   PRESETn:           1 
   PADDR:             0x00000005
   PWRITE:            0 : READ TNX
   PWDATA:            0x00000000
   PSTRB:             0000
   b2b_tnxs:          YES
   # of idle cycles:  0
+-------------------------+

The Generator has created the Transaction: (110) as below successfully:
+-------------------------+
+ Generator +
+-------------------------+
 Time: 0.000 ns

   Name               Value
   +-------------------------+
   PRESETn:           1 
   PADDR:             0x00000007
   PWRITE:            0 : READ TNX
   PWDATA:            0x00000000
   PSTRB:             0000
   b2b_tnxs:          YES
   # of idle cycles:  0
+-------------------------+

The Generator has created the Transaction: (111) as below successfully:
+-------------------------+
+ Generator +
+-------------------------+
 Time: 0.000 ns

   Name               Value
   +-------------------------+
   PRESETn:           1 
   PADDR:             0x000003f8
   PWRITE:            1 : WRITE TNX
   PWDATA:            0x21f8ed52
   PSTRB:             1001
   b2b_tnxs:          YES
   # of idle cycles:  0
+-------------------------+

The Generator has created the Transaction: (112) as below successfully:
+-------------------------+
+ Generator +
+-------------------------+
 Time: 0.000 ns

   Name               Value
   +-------------------------+
   PRESETn:           1 
   PADDR:             0x000003fa
   PWRITE:            0 : READ TNX
   PWDATA:            0x00000000
   PSTRB:             0000
   b2b_tnxs:          NO
   # of idle cycles:  4
+-------------------------+

The Generator has created the Transaction: (113) as below successfully:
+-------------------------+
+ Generator +
+-------------------------+
 Time: 0.000 ns

   Name               Value
   +-------------------------+
   PRESETn:           1 
   PADDR:             0x000003f1
   PWRITE:            1 : WRITE TNX
   PWDATA:            0xdc7dc3f4
   PSTRB:             1011
   b2b_tnxs:          NO
   # of idle cycles:  4
+-------------------------+

The Generator has created the Transaction: (114) as below successfully:
+-------------------------+
+ Generator +
+-------------------------+
 Time: 0.000 ns

   Name               Value
   +-------------------------+
   PRESETn:           1 
   PADDR:             0x000003fe
   PWRITE:            1 : WRITE TNX
   PWDATA:            0xc8196ac6
   PSTRB:             0101
   b2b_tnxs:          YES
   # of idle cycles:  0
+-------------------------+

The Generator has created the Transaction: (115) as below successfully:
+-------------------------+
+ Generator +
+-------------------------+
 Time: 0.000 ns

   Name               Value
   +-------------------------+
   PRESETn:           1 
   PADDR:             0x0000000c
   PWRITE:            0 : READ TNX
   PWDATA:            0x00000000
   PSTRB:             0000
   b2b_tnxs:          YES
   # of idle cycles:  0
+-------------------------+

The Generator has created the Transaction: (116) as below successfully:
+-------------------------+
+ Generator +
+-------------------------+
 Time: 0.000 ns

   Name               Value
   +-------------------------+
   PRESETn:           1 
   PADDR:             0x000003fb
   PWRITE:            0 : READ TNX
   PWDATA:            0x00000000
   PSTRB:             0000
   b2b_tnxs:          YES
   # of idle cycles:  0
+-------------------------+

The Generator has created the Transaction: (117) as below successfully:
+-------------------------+
+ Generator +
+-------------------------+
 Time: 0.000 ns

   Name               Value
   +-------------------------+
   PRESETn:           1 
   PADDR:             0x00000002
   PWRITE:            1 : WRITE TNX
   PWDATA:            0x2434e2fa
   PSTRB:             0110
   b2b_tnxs:          YES
   # of idle cycles:  0
+-------------------------+

The Generator has created the Transaction: (118) as below successfully:
+-------------------------+
+ Generator +
+-------------------------+
 Time: 0.000 ns

   Name               Value
   +-------------------------+
   PRESETn:           1 
   PADDR:             0x0000000a
   PWRITE:            1 : WRITE TNX
   PWDATA:            0x04234a58
   PSTRB:             1001
   b2b_tnxs:          YES
   # of idle cycles:  0
+-------------------------+

The Generator has created the Transaction: (119) as below successfully:
+-------------------------+
+ Generator +
+-------------------------+
 Time: 0.000 ns

   Name               Value
   +-------------------------+
   PRESETn:           1 
   PADDR:             0x00000007
   PWRITE:            0 : READ TNX
   PWDATA:            0x00000000
   PSTRB:             0000
   b2b_tnxs:          YES
   # of idle cycles:  0
+-------------------------+

The Generator has created the Transaction: (120) as below successfully:
+-------------------------+
+ Generator +
+-------------------------+
 Time: 0.000 ns

   Name               Value
   +-------------------------+
   PRESETn:           1 
   PADDR:             0x0000000d
   PWRITE:            1 : WRITE TNX
   PWDATA:            0xc554fcb7
   PSTRB:             1111
   b2b_tnxs:          YES
   # of idle cycles:  0
+-------------------------+

The Generator has created the Transaction: (121) as below successfully:
+-------------------------+
+ Generator +
+-------------------------+
 Time: 0.000 ns

   Name               Value
   +-------------------------+
   PRESETn:           1 
   PADDR:             0x000003fd
   PWRITE:            1 : WRITE TNX
   PWDATA:            0x38f9151a
   PSTRB:             1000
   b2b_tnxs:          YES
   # of idle cycles:  0
+-------------------------+

The Generator has created the Transaction: (122) as below successfully:
+-------------------------+
+ Generator +
+-------------------------+
 Time: 0.000 ns

   Name               Value
   +-------------------------+
   PRESETn:           1 
   PADDR:             0x000003f0
   PWRITE:            1 : WRITE TNX
   PWDATA:            0x30289268
   PSTRB:             0011
   b2b_tnxs:          NO
   # of idle cycles:  2
+-------------------------+

The Generator has created the Transaction: (123) as below successfully:
+-------------------------+
+ Generator +
+-------------------------+
 Time: 0.000 ns

   Name               Value
   +-------------------------+
   PRESETn:           1 
   PADDR:             0x000003f9
   PWRITE:            1 : WRITE TNX
   PWDATA:            0x17e4b903
   PSTRB:             1101
   b2b_tnxs:          YES
   # of idle cycles:  0
+-------------------------+

The Generator has created the Transaction: (124) as below successfully:
+-------------------------+
+ Generator +
+-------------------------+
 Time: 0.000 ns

   Name               Value
   +-------------------------+
   PRESETn:           1 
   PADDR:             0x0000000c
   PWRITE:            1 : WRITE TNX
   PWDATA:            0xdd67f33f
   PSTRB:             1010
   b2b_tnxs:          NO
   # of idle cycles:  4
+-------------------------+

The Generator has created the Transaction: (125) as below successfully:
+-------------------------+
+ Generator +
+-------------------------+
 Time: 0.000 ns

   Name               Value
   +-------------------------+
   PRESETn:           1 
   PADDR:             0x000003fe
   PWRITE:            1 : WRITE TNX
   PWDATA:            0xd1b54a96
   PSTRB:             0100
   b2b_tnxs:          NO
   # of idle cycles:  5
+-------------------------+

The Generator has created the Transaction: (126) as below successfully:
+-------------------------+
+ Generator +
+-------------------------+
 Time: 0.000 ns

   Name               Value
   +-------------------------+
   PRESETn:           1 
   PADDR:             0x000003f3
   PWRITE:            0 : READ TNX
   PWDATA:            0x00000000
   PSTRB:             0000
   b2b_tnxs:          YES
   # of idle cycles:  0
+-------------------------+

The Generator has created the Transaction: (127) as below successfully:
+-------------------------+
+ Generator +
+-------------------------+
 Time: 0.000 ns

   Name               Value
   +-------------------------+
   PRESETn:           1 
   PADDR:             0x000003fe
   PWRITE:            0 : READ TNX
   PWDATA:            0x00000000
   PSTRB:             0000
   b2b_tnxs:          YES
   # of idle cycles:  0
+-------------------------+

The Generator has created the Transaction: (128) as below successfully:
+-------------------------+
+ Generator +
+-------------------------+
 Time: 0.000 ns

   Name               Value
   +-------------------------+
   PRESETn:           1 
   PADDR:             0x000003f5
   PWRITE:            1 : WRITE TNX
   PWDATA:            0xd50182df
   PSTRB:             0001
   b2b_tnxs:          YES
   # of idle cycles:  0
+-------------------------+

The Generator has created the Transaction: (129) as below successfully:
+-------------------------+
+ Generator +
+-------------------------+
 Time: 0.000 ns

   Name               Value
   +-------------------------+
   PRESETn:           1 
   PADDR:             0x0000000d
   PWRITE:            1 : WRITE TNX
   PWDATA:            0x0e0fea5b
   PSTRB:             1101
   b2b_tnxs:          YES
   # of idle cycles:  0
+-------------------------+

The Generator has created the Transaction: (130) as below successfully:
+-------------------------+
+ Generator +
+-------------------------+
 Time: 0.000 ns

   Name               Value
   +-------------------------+
   PRESETn:           1 
   PADDR:             0x000003f1
   PWRITE:            1 : WRITE TNX
   PWDATA:            0xd356051d
   PSTRB:             0100
   b2b_tnxs:          YES
   # of idle cycles:  0
+-------------------------+

The Generator has created the Transaction: (131) as below successfully:
+-------------------------+
+ Generator +
+-------------------------+
 Time: 0.000 ns

   Name               Value
   +-------------------------+
   PRESETn:           1 
   PADDR:             0x000003f4
   PWRITE:            0 : READ TNX
   PWDATA:            0x00000000
   PSTRB:             0000
   b2b_tnxs:          YES
   # of idle cycles:  0
+-------------------------+

The Generator has created the Transaction: (132) as below successfully:
+-------------------------+
+ Generator +
+-------------------------+
 Time: 0.000 ns

   Name               Value
   +-------------------------+
   PRESETn:           1 
   PADDR:             0x000003f7
   PWRITE:            0 : READ TNX
   PWDATA:            0x00000000
   PSTRB:             0000
   b2b_tnxs:          YES
   # of idle cycles:  0
+-------------------------+

The Generator has created the Transaction: (133) as below successfully:
+-------------------------+
+ Generator +
+-------------------------+
 Time: 0.000 ns

   Name               Value
   +-------------------------+
   PRESETn:           1 
   PADDR:             0x00000006
   PWRITE:            0 : READ TNX
   PWDATA:            0x00000000
   PSTRB:             0000
   b2b_tnxs:          YES
   # of idle cycles:  0
+-------------------------+

The Generator has created the Transaction: (134) as below successfully:
+-------------------------+
+ Generator +
+-------------------------+
 Time: 0.000 ns

   Name               Value
   +-------------------------+
   PRESETn:           1 
   PADDR:             0x000003f5
   PWRITE:            1 : WRITE TNX
   PWDATA:            0xddd15405
   PSTRB:             0110
   b2b_tnxs:          YES
   # of idle cycles:  0
+-------------------------+

The Generator has created the Transaction: (135) as below successfully:
+-------------------------+
+ Generator +
+-------------------------+
 Time: 0.000 ns

   Name               Value
   +-------------------------+
   PRESETn:           1 
   PADDR:             0x000003ff
   PWRITE:            1 : WRITE TNX
   PWDATA:            0xb2e1a1c0
   PSTRB:             0100
   b2b_tnxs:          YES
   # of idle cycles:  0
+-------------------------+

The Generator has created the Transaction: (136) as below successfully:
+-------------------------+
+ Generator +
+-------------------------+
 Time: 0.000 ns

   Name               Value
   +-------------------------+
   PRESETn:           1 
   PADDR:             0x000003f4
   PWRITE:            0 : READ TNX
   PWDATA:            0x00000000
   PSTRB:             0000
   b2b_tnxs:          NO
   # of idle cycles:  4
+-------------------------+

The Generator has created the Transaction: (137) as below successfully:
+-------------------------+
+ Generator +
+-------------------------+
 Time: 0.000 ns

   Name               Value
   +-------------------------+
   PRESETn:           1 
   PADDR:             0x0000000b
   PWRITE:            0 : READ TNX
   PWDATA:            0x00000000
   PSTRB:             0000
   b2b_tnxs:          YES
   # of idle cycles:  0
+-------------------------+

The Generator has created the Transaction: (138) as below successfully:
+-------------------------+
+ Generator +
+-------------------------+
 Time: 0.000 ns

   Name               Value
   +-------------------------+
   PRESETn:           1 
   PADDR:             0x000003fd
   PWRITE:            0 : READ TNX
   PWDATA:            0x00000000
   PSTRB:             0000
   b2b_tnxs:          YES
   # of idle cycles:  0
+-------------------------+

The Generator has created the Transaction: (139) as below successfully:
+-------------------------+
+ Generator +
+-------------------------+
 Time: 0.000 ns

   Name               Value
   +-------------------------+
   PRESETn:           1 
   PADDR:             0x000003f1
   PWRITE:            1 : WRITE TNX
   PWDATA:            0xd4c230e2
   PSTRB:             0111
   b2b_tnxs:          YES
   # of idle cycles:  0
+-------------------------+

The Generator has created the Transaction: (140) as below successfully:
+-------------------------+
+ Generator +
+-------------------------+
 Time: 0.000 ns

   Name               Value
   +-------------------------+
   PRESETn:           1 
   PADDR:             0x00000007
   PWRITE:            0 : READ TNX
   PWDATA:            0x00000000
   PSTRB:             0000
   b2b_tnxs:          YES
   # of idle cycles:  0
+-------------------------+

The Generator has created the Transaction: (141) as below successfully:
+-------------------------+
+ Generator +
+-------------------------+
 Time: 0.000 ns

   Name               Value
   +-------------------------+
   PRESETn:           1 
   PADDR:             0x000003f7
   PWRITE:            1 : WRITE TNX
   PWDATA:            0x1755ee5e
   PSTRB:             0110
   b2b_tnxs:          YES
   # of idle cycles:  0
+-------------------------+

The Generator has created the Transaction: (142) as below successfully:
+-------------------------+
+ Generator +
+-------------------------+
 Time: 0.000 ns

   Name               Value
   +-------------------------+
   PRESETn:           1 
   PADDR:             0x00000005
   PWRITE:            0 : READ TNX
   PWDATA:            0x00000000
   PSTRB:             0000
   b2b_tnxs:          YES
   # of idle cycles:  0
+-------------------------+

The Generator has created the Transaction: (143) as below successfully:
+-------------------------+
+ Generator +
+-------------------------+
 Time: 0.000 ns

   Name               Value
   +-------------------------+
   PRESETn:           1 
   PADDR:             0x0000000c
   PWRITE:            1 : WRITE TNX
   PWDATA:            0xdd63ea21
   PSTRB:             1001
   b2b_tnxs:          YES
   # of idle cycles:  0
+-------------------------+

The Generator has created the Transaction: (144) as below successfully:
+-------------------------+
+ Generator +
+-------------------------+
 Time: 0.000 ns

   Name               Value
   +-------------------------+
   PRESETn:           1 
   PADDR:             0x00000002
   PWRITE:            0 : READ TNX
   PWDATA:            0x00000000
   PSTRB:             0000
   b2b_tnxs:          NO
   # of idle cycles:  1
+-------------------------+

The Generator has created the Transaction: (145) as below successfully:
+-------------------------+
+ Generator +
+-------------------------+
 Time: 0.000 ns

   Name               Value
   +-------------------------+
   PRESETn:           1 
   PADDR:             0x0000000b
   PWRITE:            0 : READ TNX
   PWDATA:            0x00000000
   PSTRB:             0000
   b2b_tnxs:          YES
   # of idle cycles:  0
+-------------------------+

The Generator has created the Transaction: (146) as below successfully:
+-------------------------+
+ Generator +
+-------------------------+
 Time: 0.000 ns

   Name               Value
   +-------------------------+
   PRESETn:           1 
   PADDR:             0x000003f6
   PWRITE:            0 : READ TNX
   PWDATA:            0x00000000
   PSTRB:             0000
   b2b_tnxs:          YES
   # of idle cycles:  0
+-------------------------+

The Generator has created the Transaction: (147) as below successfully:
+-------------------------+
+ Generator +
+-------------------------+
 Time: 0.000 ns

   Name               Value
   +-------------------------+
   PRESETn:           1 
   PADDR:             0x00000007
   PWRITE:            1 : WRITE TNX
   PWDATA:            0x2be1397c
   PSTRB:             0111
   b2b_tnxs:          YES
   # of idle cycles:  0
+-------------------------+

The Generator has created the Transaction: (148) as below successfully:
+-------------------------+
+ Generator +
+-------------------------+
 Time: 0.000 ns

   Name               Value
   +-------------------------+
   PRESETn:           1 
   PADDR:             0x00000001
   PWRITE:            1 : WRITE TNX
   PWDATA:            0xee1dedc4
   PSTRB:             0110
   b2b_tnxs:          YES
   # of idle cycles:  0
+-------------------------+

The Generator has created the Transaction: (149) as below successfully:
+-------------------------+
+ Generator +
+-------------------------+
 Time: 0.000 ns

   Name               Value
   +-------------------------+
   PRESETn:           1 
   PADDR:             0x000003f8
   PWRITE:            0 : READ TNX
   PWDATA:            0x00000000
   PSTRB:             0000
   b2b_tnxs:          YES
   # of idle cycles:  0
+-------------------------+

The Generator has created the Transaction: (150) as below successfully:
+-------------------------+
+ Generator +
+-------------------------+
 Time: 0.000 ns

   Name               Value
   +-------------------------+
   PRESETn:           1 
   PADDR:             0x000003f1
   PWRITE:            1 : WRITE TNX
   PWDATA:            0xce11eb43
   PSTRB:             1101
   b2b_tnxs:          YES
   # of idle cycles:  0
+-------------------------+

The Generator has created the Transaction: (151) as below successfully:
+-------------------------+
+ Generator +
+-------------------------+
 Time: 0.000 ns

   Name               Value
   +-------------------------+
   PRESETn:           1 
   PADDR:             0x000003fe
   PWRITE:            0 : READ TNX
   PWDATA:            0x00000000
   PSTRB:             0000
   b2b_tnxs:          YES
   # of idle cycles:  0
+-------------------------+

The Generator has created the Transaction: (152) as below successfully:
+-------------------------+
+ Generator +
+-------------------------+
 Time: 0.000 ns

   Name               Value
   +-------------------------+
   PRESETn:           1 
   PADDR:             0x00000008
   PWRITE:            1 : WRITE TNX
   PWDATA:            0xc04d6fea
   PSTRB:             0100
   b2b_tnxs:          NO
   # of idle cycles:  1
+-------------------------+

The Generator has created the Transaction: (153) as below successfully:
+-------------------------+
+ Generator +
+-------------------------+
 Time: 0.000 ns

   Name               Value
   +-------------------------+
   PRESETn:           1 
   PADDR:             0x0000000b
